TIME,V(OUT),V(IN1),V(IN2)
0.00000000e+00,6.99998729e-01,0.00000000e+00,0.00000000e+00
1.00000000e-15,6.99998729e-01,0.00000000e+00,0.00000000e+00
3.00000000e-15,6.99998729e-01,0.00000000e+00,0.00000000e+00
7.00000000e-15,6.99998729e-01,0.00000000e+00,0.00000000e+00
1.50000000e-14,6.99998729e-01,0.00000000e+00,0.00000000e+00
3.10000000e-14,6.99998729e-01,0.00000000e+00,0.00000000e+00
6.30000000e-14,6.99998729e-01,0.00000000e+00,0.00000000e+00
1.27000000e-13,6.99998729e-01,0.00000000e+00,0.00000000e+00
2.55000000e-13,6.99998729e-01,0.00000000e+00,0.00000000e+00
5.11000000e-13,6.99998729e-01,0.00000000e+00,0.00000000e+00
1.02300000e-12,6.99998729e-01,0.00000000e+00,0.00000000e+00
2.04700000e-12,6.99998729e-01,0.00000000e+00,0.00000000e+00
4.09500000e-12,6.99998729e-01,0.00000000e+00,0.00000000e+00
8.19100000e-12,6.99998729e-01,0.00000000e+00,0.00000000e+00
1.63830000e-11,6.99998729e-01,0.00000000e+00,0.00000000e+00
2.63830000e-11,6.99998729e-01,0.00000000e+00,0.00000000e+00
3.63830000e-11,6.99998729e-01,0.00000000e+00,0.00000000e+00
4.63830000e-11,6.99998729e-01,0.00000000e+00,0.00000000e+00
5.63830000e-11,6.99998729e-01,0.00000000e+00,0.00000000e+00
6.63830000e-11,6.99998729e-01,0.00000000e+00,0.00000000e+00
7.63830000e-11,6.99998729e-01,0.00000000e+00,0.00000000e+00
8.63830000e-11,6.99998729e-01,0.00000000e+00,0.00000000e+00
9.63830000e-11,6.99998729e-01,0.00000000e+00,0.00000000e+00
1.00000000e-10,6.99998729e-01,0.00000000e+00,0.00000000e+00
1.01000000e-10,6.99998729e-01,0.00000000e+00,0.00000000e+00
1.03000000e-10,6.99998729e-01,0.00000000e+00,0.00000000e+00
1.07000000e-10,6.99998729e-01,0.00000000e+00,0.00000000e+00
1.10000000e-10,6.99998729e-01,0.00000000e+00,0.00000000e+00
1.10050000e-10,7.00735359e-01,0.00000000e+00,3.50000000e-03
1.10150000e-10,7.02542709e-01,0.00000000e+00,1.05000000e-02
1.10250000e-10,7.04448597e-01,0.00000000e+00,1.75000000e-02
1.10450000e-10,7.08395683e-01,0.00000000e+00,3.15000000e-02
1.10650000e-10,7.12031890e-01,0.00000000e+00,4.55000000e-02
1.11050000e-10,7.17937573e-01,0.00000000e+00,7.35000000e-02
1.11450000e-10,7.22384960e-01,0.00000000e+00,1.01500000e-01
1.11850000e-10,7.25859267e-01,0.00000000e+00,1.29500000e-01
1.12650000e-10,7.31203872e-01,0.00000000e+00,1.85500000e-01
1.14250000e-10,7.32956869e-01,0.00000000e+00,2.97500000e-01
1.14383042e-10,7.32190297e-01,0.00000000e+00,3.06812921e-01
1.14649125e-10,7.29702152e-01,0.00000000e+00,3.25438763e-01
1.14915209e-10,7.25053786e-01,0.00000000e+00,3.44064604e-01
1.15181292e-10,7.17982348e-01,0.00000000e+00,3.62690446e-01
1.15447376e-10,7.08153213e-01,0.00000000e+00,3.81316288e-01
1.15713459e-10,6.95223215e-01,0.00000000e+00,3.99942130e-01
1.15979542e-10,6.78788064e-01,0.00000000e+00,4.18567971e-01
1.16245626e-10,6.58305102e-01,0.00000000e+00,4.37193813e-01
1.16511709e-10,6.33051451e-01,0.00000000e+00,4.55819655e-01
1.16777793e-10,6.02268433e-01,0.00000000e+00,4.74445497e-01
1.17043876e-10,5.65480194e-01,0.00000000e+00,4.93071338e-01
1.17309960e-10,5.22453177e-01,0.00000000e+00,5.11697180e-01
1.17576043e-10,4.72696073e-01,0.00000000e+00,5.30323022e-01
1.17842127e-10,4.15112445e-01,0.00000000e+00,5.48948864e-01
1.18108210e-10,3.47772183e-01,0.00000000e+00,5.67574705e-01
1.18347685e-10,2.77712620e-01,0.00000000e+00,5.84337963e-01
1.18563213e-10,2.10940390e-01,0.00000000e+00,5.99424895e-01
1.18778740e-10,1.50531816e-01,0.00000000e+00,6.14511827e-01
1.18960586e-10,1.10109586e-01,0.00000000e+00,6.27241032e-01
1.19119329e-10,8.37452029e-02,0.00000000e+00,6.38353059e-01
1.19278073e-10,6.46809829e-02,0.00000000e+00,6.49465086e-01
1.19436816e-10,5.13163248e-02,0.00000000e+00,6.60577112e-01
1.19595559e-10,4.20813799e-02,0.00000000e+00,6.71689139e-01
1.19754302e-10,3.57037473e-02,0.00000000e+00,6.82801166e-01
1.19913046e-10,3.12541404e-02,0.00000000e+00,6.93913192e-01
1.20000000e-10,2.94066505e-02,0.00000000e+00,7.00000000e-01
1.20031749e-10,2.76024082e-02,0.00000000e+00,7.00000000e-01
1.20060060e-10,2.61109829e-02,0.00000000e+00,7.00000000e-01
1.20116682e-10,2.33447741e-02,0.00000000e+00,7.00000000e-01
1.20229927e-10,1.89226610e-02,0.00000000e+00,7.00000000e-01
1.20343172e-10,1.56539753e-02,0.00000000e+00,7.00000000e-01
1.20569662e-10,1.12597776e-02,0.00000000e+00,7.00000000e-01
1.21022642e-10,6.82756897e-03,0.00000000e+00,7.00000000e-01
1.21475621e-10,4.91823612e-03,0.00000000e+00,7.00000000e-01
1.21928601e-10,3.78811671e-03,0.00000000e+00,7.00000000e-01
1.22834560e-10,2.47110496e-03,0.00000000e+00,7.00000000e-01
1.23740519e-10,1.79368740e-03,0.00000000e+00,7.00000000e-01
1.24646479e-10,1.37654551e-03,0.00000000e+00,7.00000000e-01
1.26458397e-10,9.04851872e-04,0.00000000e+00,7.00000000e-01
1.30082234e-10,5.09860384e-04,0.00000000e+00,7.00000000e-01
1.37329909e-10,2.57604896e-04,0.00000000e+00,7.00000000e-01
1.44577583e-10,1.73191793e-04,0.00000000e+00,7.00000000e-01
1.51825257e-10,1.28269657e-04,0.00000000e+00,7.00000000e-01
1.66320605e-10,8.51529407e-05,0.00000000e+00,7.00000000e-01
1.80815954e-10,6.25877394e-05,0.00000000e+00,7.00000000e-01
1.95311302e-10,5.06123423e-05,0.00000000e+00,7.00000000e-01
2.24301999e-10,3.50457710e-05,0.00000000e+00,7.00000000e-01
2.53292696e-10,2.78473429e-05,0.00000000e+00,7.00000000e-01
2.82283392e-10,2.20003857e-05,0.00000000e+00,7.00000000e-01
3.32283392e-10,1.73335246e-05,0.00000000e+00,7.00000000e-01
3.82283392e-10,1.32885458e-05,0.00000000e+00,7.00000000e-01
4.20000000e-10,1.22757301e-05,0.00000000e+00,7.00000000e-01
4.20062500e-10,-2.30315816e-03,0.00000000e+00,6.95625000e-01
4.20125000e-10,-4.19607128e-03,0.00000000e+00,6.91250000e-01
4.20187500e-10,-5.89932462e-03,0.00000000e+00,6.86875000e-01
4.20312500e-10,-8.38678711e-03,0.00000000e+00,6.78125000e-01
4.20437500e-10,-9.99268645e-03,0.00000000e+00,6.69375000e-01
4.20687500e-10,-1.18082831e-02,0.00000000e+00,6.51875000e-01
4.21187500e-10,-1.31991214e-02,0.00000000e+00,6.16875000e-01
4.21687500e-10,-1.37721790e-02,0.00000000e+00,5.81875000e-01
4.22687500e-10,-1.52113757e-02,0.00000000e+00,5.11875000e-01
4.23687500e-10,-1.75817633e-02,0.00000000e+00,4.41875000e-01
4.23798737e-10,-1.79455305e-02,0.00000000e+00,4.34088402e-01
4.24021211e-10,-1.87018208e-02,0.00000000e+00,4.18515206e-01
4.24243686e-10,-1.95889198e-02,0.00000000e+00,4.02942010e-01
4.24466160e-10,-2.06247994e-02,0.00000000e+00,3.87368814e-01
4.24688634e-10,-2.18342773e-02,0.00000000e+00,3.71795618e-01
4.24911108e-10,-2.32482171e-02,0.00000000e+00,3.56222422e-01
4.25133582e-10,-2.49026738e-02,0.00000000e+00,3.40649226e-01
4.25356057e-10,-2.68372669e-02,0.00000000e+00,3.25076030e-01
4.25578531e-10,-2.90922683e-02,0.00000000e+00,3.09502834e-01
4.25801005e-10,-3.17052477e-02,0.00000000e+00,2.93929638e-01
4.26023479e-10,-3.47173345e-02,0.00000000e+00,2.78356442e-01
4.26245954e-10,-3.82657891e-02,0.00000000e+00,2.62783246e-01
4.26468428e-10,-4.28594501e-02,0.00000000e+00,2.47210050e-01
4.26690902e-10,-4.78724868e-02,0.00000000e+00,2.31636853e-01
4.26913376e-10,-4.95732920e-02,0.00000000e+00,2.16063657e-01
4.27135851e-10,-4.38327899e-02,0.00000000e+00,2.00490461e-01
4.27336077e-10,-3.01146219e-02,0.00000000e+00,1.86474585e-01
4.27516281e-10,-1.04426326e-02,0.00000000e+00,1.73860296e-01
4.27696486e-10,1.55284893e-02,0.00000000e+00,1.61246007e-01
4.27876690e-10,4.68139675e-02,0.00000000e+00,1.48631719e-01
4.28056894e-10,8.24011649e-02,0.00000000e+00,1.36017430e-01
4.28237098e-10,1.21336892e-01,0.00000000e+00,1.23403141e-01
4.28417302e-10,1.62706363e-01,0.00000000e+00,1.10788852e-01
4.28597506e-10,2.05570997e-01,0.00000000e+00,9.81745634e-02
4.28957914e-10,2.91179552e-01,0.00000000e+00,7.29459859e-02
4.29318323e-10,3.69761994e-01,0.00000000e+00,4.77174083e-02
4.29642690e-10,4.29711718e-01,0.00000000e+00,2.50116885e-02
4.29927230e-10,4.73529235e-01,0.00000000e+00,5.09388664e-03
4.30000000e-10,4.83540341e-01,0.00000000e+00,-1.22124533e-15
4.30016965e-10,4.86004837e-01,0.00000000e+00,0.00000000e+00
4.30032085e-10,4.88202695e-01,0.00000000e+00,0.00000000e+00
4.30062325e-10,4.92595801e-01,0.00000000e+00,0.00000000e+00
4.30122804e-10,5.01337469e-01,0.00000000e+00,0.00000000e+00
4.30243763e-10,5.18357561e-01,0.00000000e+00,0.00000000e+00
4.30364723e-10,5.34460259e-01,0.00000000e+00,0.00000000e+00
4.30485682e-10,5.49428888e-01,0.00000000e+00,0.00000000e+00
4.30606641e-10,5.63206909e-01,0.00000000e+00,0.00000000e+00
4.30727601e-10,5.75820360e-01,0.00000000e+00,0.00000000e+00
4.30969519e-10,5.97852913e-01,0.00000000e+00,0.00000000e+00
4.31211438e-10,6.16105425e-01,0.00000000e+00,0.00000000e+00
4.31453357e-10,6.31183359e-01,0.00000000e+00,0.00000000e+00
4.31695275e-10,6.43612101e-01,0.00000000e+00,0.00000000e+00
4.31937194e-10,6.53838043e-01,0.00000000e+00,0.00000000e+00
4.32179113e-10,6.62237858e-01,0.00000000e+00,0.00000000e+00
4.32421031e-10,6.69128145e-01,0.00000000e+00,0.00000000e+00
4.32662950e-10,6.74773758e-01,0.00000000e+00,0.00000000e+00
4.33146787e-10,6.83243015e-01,0.00000000e+00,0.00000000e+00
4.34114462e-10,6.92894744e-01,0.00000000e+00,0.00000000e+00
4.35082136e-10,6.96996549e-01,0.00000000e+00,0.00000000e+00
4.36049811e-10,6.98731899e-01,0.00000000e+00,0.00000000e+00
4.37985160e-10,6.99868080e-01,0.00000000e+00,0.00000000e+00
4.39920509e-10,6.99985392e-01,0.00000000e+00,0.00000000e+00
4.43791207e-10,7.00003645e-01,0.00000000e+00,0.00000000e+00
4.47661906e-10,6.99997430e-01,0.00000000e+00,0.00000000e+00
4.55403302e-10,6.99999491e-01,0.00000000e+00,0.00000000e+00
4.70886095e-10,6.99998133e-01,0.00000000e+00,0.00000000e+00
5.01851681e-10,6.99999261e-01,0.00000000e+00,0.00000000e+00
5.51851681e-10,6.99998234e-01,0.00000000e+00,0.00000000e+00
6.01851681e-10,6.99999192e-01,0.00000000e+00,0.00000000e+00
6.10000000e-10,6.99998416e-01,0.00000000e+00,0.00000000e+00
6.10062500e-10,7.00952832e-01,0.00000000e+00,4.37500000e-03
6.10125000e-10,7.02060188e-01,0.00000000e+00,8.75000000e-03
6.10187500e-10,7.03223142e-01,0.00000000e+00,1.31250000e-02
6.10312500e-10,7.05714023e-01,0.00000000e+00,2.18750000e-02
6.10562500e-10,7.10523884e-01,0.00000000e+00,3.93750000e-02
6.10812500e-10,7.14661551e-01,0.00000000e+00,5.68750000e-02
6.11312500e-10,7.21027174e-01,0.00000000e+00,9.18750000e-02
6.11812500e-10,7.25608951e-01,0.00000000e+00,1.26875000e-01
6.12312500e-10,7.29150436e-01,0.00000000e+00,1.61875000e-01
6.13312500e-10,7.34435045e-01,0.00000000e+00,2.31875000e-01
6.14312500e-10,7.33982414e-01,0.00000000e+00,3.01875000e-01
6.14444849e-10,7.32899949e-01,0.00000000e+00,3.11139451e-01
6.14577199e-10,7.31613855e-01,0.00000000e+00,3.20403901e-01
6.14841897e-10,7.27489763e-01,0.00000000e+00,3.38932802e-01
6.15106596e-10,7.21072035e-01,0.00000000e+00,3.57461703e-01
6.15371294e-10,7.12036538e-01,0.00000000e+00,3.75990604e-01
6.15635993e-10,7.00050062e-01,0.00000000e+00,3.94519505e-01
6.15900692e-10,6.84737943e-01,0.00000000e+00,4.13048407e-01
6.16165390e-10,6.65612974e-01,0.00000000e+00,4.31577308e-01
6.16430089e-10,6.42013610e-01,0.00000000e+00,4.50106209e-01
6.16694787e-10,6.13169033e-01,0.00000000e+00,4.68635110e-01
6.16959486e-10,5.78489362e-01,0.00000000e+00,4.87164011e-01
6.17224184e-10,5.37714915e-01,0.00000000e+00,5.05692912e-01
6.17488883e-10,4.90494641e-01,0.00000000e+00,5.24221813e-01
6.17753582e-10,4.35981666e-01,0.00000000e+00,5.42750714e-01
6.18018280e-10,3.72550903e-01,0.00000000e+00,5.61279615e-01
6.18256509e-10,3.06178776e-01,0.00000000e+00,5.77955626e-01
6.18470915e-10,2.40176305e-01,0.00000000e+00,5.92964036e-01
6.18685321e-10,1.75996654e-01,0.00000000e+00,6.07972446e-01
6.18878286e-10,1.27535082e-01,0.00000000e+00,6.21480015e-01
6.19042635e-10,9.58536703e-02,0.00000000e+00,6.32984445e-01
6.19190549e-10,7.46621871e-02,0.00000000e+00,6.43338431e-01
6.19338463e-10,5.92302384e-02,0.00000000e+00,6.53692418e-01
6.19486377e-10,4.82203300e-02,0.00000000e+00,6.64046404e-01
6.19634291e-10,4.04270011e-02,0.00000000e+00,6.74400391e-01
6.19782205e-10,3.48971350e-02,0.00000000e+00,6.84754378e-01
6.19930119e-10,3.09319738e-02,0.00000000e+00,6.95108364e-01
6.20000000e-10,2.94657265e-02,0.00000000e+00,7.00000000e-01
6.20029583e-10,2.77715457e-02,0.00000000e+00,7.00000000e-01
6.20056207e-10,2.63520193e-02,0.00000000e+00,7.00000000e-01
6.20109456e-10,2.37079460e-02,0.00000000e+00,7.00000000e-01
6.20215955e-10,1.94278860e-02,0.00000000e+00,7.00000000e-01
6.20322453e-10,1.62101832e-02,0.00000000e+00,7.00000000e-01
6.20535449e-10,1.18016440e-02,0.00000000e+00,7.00000000e-01
6.20961442e-10,7.23502771e-03,0.00000000e+00,7.00000000e-01
6.21387434e-10,5.22401962e-03,0.00000000e+00,7.00000000e-01
6.21813427e-10,4.03946452e-03,0.00000000e+00,7.00000000e-01
6.22665412e-10,2.65367491e-03,0.00000000e+00,7.00000000e-01
6.23517397e-10,1.93302147e-03,0.00000000e+00,7.00000000e-01
6.24369382e-10,1.48670829e-03,0.00000000e+00,7.00000000e-01
6.26073353e-10,9.78397711e-04,0.00000000e+00,7.00000000e-01
6.29481293e-10,5.50691588e-04,0.00000000e+00,7.00000000e-01
6.32889234e-10,3.80666025e-04,0.00000000e+00,7.00000000e-01
6.36297175e-10,2.84824554e-04,0.00000000e+00,7.00000000e-01
6.43113056e-10,1.89025555e-04,0.00000000e+00,7.00000000e-01
6.49928938e-10,1.39632092e-04,0.00000000e+00,7.00000000e-01
6.56744819e-10,1.11657160e-04,0.00000000e+00,7.00000000e-01
6.70376582e-10,7.77559183e-05,0.00000000e+00,7.00000000e-01
6.84008345e-10,6.06575395e-05,0.00000000e+00,7.00000000e-01
6.97640108e-10,4.86206326e-05,0.00000000e+00,7.00000000e-01
7.24903634e-10,3.58357718e-05,0.00000000e+00,7.00000000e-01
7.74903634e-10,2.31000254e-05,0.00000000e+00,7.00000000e-01
8.24903634e-10,1.78891033e-05,0.00000000e+00,7.00000000e-01
8.74903634e-10,1.37114034e-05,0.00000000e+00,7.00000000e-01
9.20000000e-10,1.22221750e-05,0.00000000e+00,7.00000000e-01
9.20062500e-10,-2.30320611e-03,0.00000000e+00,6.95625000e-01
9.20125000e-10,-4.19611435e-03,0.00000000e+00,6.91250000e-01
9.20187500e-10,-5.89936308e-03,0.00000000e+00,6.86875000e-01
9.20312500e-10,-8.38681812e-03,0.00000000e+00,6.78125000e-01
9.20437500e-10,-9.99271180e-03,0.00000000e+00,6.69375000e-01
9.20687500e-10,-1.18083004e-02,0.00000000e+00,6.51875000e-01
9.21187500e-10,-1.31991299e-02,0.00000000e+00,6.16875000e-01
9.21687500e-10,-1.37721836e-02,0.00000000e+00,5.81875000e-01
9.22687500e-10,-1.52113769e-02,0.00000000e+00,5.11875000e-01
9.23687500e-10,-1.75817638e-02,0.00000000e+00,4.41875000e-01
9.23798736e-10,-1.79455271e-02,0.00000000e+00,4.34088477e-01
9.24021208e-10,-1.87018090e-02,0.00000000e+00,4.18515431e-01
9.24243680e-10,-1.95888968e-02,0.00000000e+00,4.02942384e-01
9.24466152e-10,-2.06247618e-02,0.00000000e+00,3.87369338e-01
9.24688624e-10,-2.18342208e-02,0.00000000e+00,3.71796292e-01
9.24911096e-10,-2.32481362e-02,0.00000000e+00,3.56223246e-01
9.25133569e-10,-2.49025619e-02,0.00000000e+00,3.40650200e-01
9.25356041e-10,-2.68371159e-02,0.00000000e+00,3.25077153e-01
9.25578513e-10,-2.90920685e-02,0.00000000e+00,3.09504107e-01
9.25800985e-10,-3.17049859e-02,0.00000000e+00,2.93931061e-01
9.26023457e-10,-3.47169752e-02,0.00000000e+00,2.78358015e-01
9.26245929e-10,-3.82651546e-02,0.00000000e+00,2.62784969e-01
9.26468401e-10,-4.28583126e-02,0.00000000e+00,2.47211922e-01
9.26690873e-10,-4.78722727e-02,0.00000000e+00,2.31638876e-01
9.26913345e-10,-4.95761758e-02,0.00000000e+00,2.16065830e-01
9.27135817e-10,-4.38401086e-02,0.00000000e+00,2.00492784e-01
9.27336042e-10,-3.01262257e-02,0.00000000e+00,1.86477042e-01
9.27516245e-10,-1.04577193e-02,0.00000000e+00,1.73862875e-01
9.27696447e-10,1.55105449e-02,0.00000000e+00,1.61248707e-01
9.27876649e-10,4.67937864e-02,0.00000000e+00,1.48634540e-01
9.28056852e-10,8.23792838e-02,0.00000000e+00,1.36020373e-01
9.28237054e-10,1.21313775e-01,0.00000000e+00,1.23406205e-01
9.28417257e-10,1.62682445e-01,0.00000000e+00,1.10792038e-01
9.28597459e-10,2.05546741e-01,0.00000000e+00,9.81778702e-02
9.28957864e-10,2.91156291e-01,0.00000000e+00,7.29495354e-02
9.29318269e-10,3.69741780e-01,0.00000000e+00,4.77212005e-02
9.29642633e-10,4.29694838e-01,0.00000000e+00,2.50156992e-02
9.29927167e-10,4.73514583e-01,0.00000000e+00,5.09828549e-03
9.30000000e-10,4.83534856e-01,0.00000000e+00,5.99520433e-15
9.30016964e-10,4.85999373e-01,0.00000000e+00,0.00000000e+00
9.30032084e-10,4.88197249e-01,0.00000000e+00,0.00000000e+00
9.30062323e-10,4.92590390e-01,0.00000000e+00,0.00000000e+00
9.30122802e-10,5.01332120e-01,0.00000000e+00,0.00000000e+00
9.30243758e-10,5.18352335e-01,0.00000000e+00,0.00000000e+00
9.30364715e-10,5.34455165e-01,0.00000000e+00,0.00000000e+00
9.30485672e-10,5.49423943e-01,0.00000000e+00,0.00000000e+00
9.30606629e-10,5.63202128e-01,0.00000000e+00,0.00000000e+00
9.30727586e-10,5.75815757e-01,0.00000000e+00,0.00000000e+00
9.30969499e-10,5.97848686e-01,0.00000000e+00,0.00000000e+00
9.31211413e-10,6.16101588e-01,0.00000000e+00,0.00000000e+00
9.31453327e-10,6.31179911e-01,0.00000000e+00,0.00000000e+00
9.31695240e-10,6.43609029e-01,0.00000000e+00,0.00000000e+00
9.31937154e-10,6.53835327e-01,0.00000000e+00,0.00000000e+00
9.32179068e-10,6.62235472e-01,0.00000000e+00,0.00000000e+00
9.32420981e-10,6.69126060e-01,0.00000000e+00,0.00000000e+00
9.32662895e-10,6.74771945e-01,0.00000000e+00,0.00000000e+00
9.33146722e-10,6.83241661e-01,0.00000000e+00,0.00000000e+00
9.34114377e-10,6.92894026e-01,0.00000000e+00,0.00000000e+00
9.35082032e-10,6.96996185e-01,0.00000000e+00,0.00000000e+00
9.36049686e-10,6.98731720e-01,0.00000000e+00,0.00000000e+00
9.37984996e-10,6.99868049e-01,0.00000000e+00,0.00000000e+00
9.39920305e-10,6.99985387e-01,0.00000000e+00,0.00000000e+00
9.43790924e-10,7.00003646e-01,0.00000000e+00,0.00000000e+00
9.47661542e-10,6.99997430e-01,0.00000000e+00,0.00000000e+00
9.55402780e-10,6.99999491e-01,0.00000000e+00,0.00000000e+00
9.70885254e-10,6.99998133e-01,0.00000000e+00,0.00000000e+00
1.00000000e-09,6.99999257e-01,0.00000000e+00,0.00000000e+00
