TIME,V(OUT),V(IN1),V(IN2)
0.00000000e+00,6.99994511e-01,0.00000000e+00,0.00000000e+00
1.00000000e-13,7.01528923e-01,0.00000000e+00,7.00000000e-03
2.00000000e-13,7.03468550e-01,0.00000000e+00,1.40000000e-02
3.00000000e-13,7.05452406e-01,0.00000000e+00,2.10000000e-02
4.00000000e-13,7.07416436e-01,0.00000000e+00,2.80000000e-02
5.00000000e-13,7.09380466e-01,0.00000000e+00,3.50000000e-02
6.00000000e-13,7.11081481e-01,0.00000000e+00,4.20000000e-02
7.00000000e-13,7.12749988e-01,0.00000000e+00,4.90000000e-02
8.00000000e-13,7.14314672e-01,0.00000000e+00,5.60000000e-02
9.00000000e-13,7.15668564e-01,0.00000000e+00,6.30000000e-02
1.00000000e-12,7.17022455e-01,0.00000000e+00,7.00000000e-02
1.10000000e-12,7.18125116e-01,0.00000000e+00,7.70000000e-02
1.20000000e-12,7.19152734e-01,0.00000000e+00,8.40000000e-02
1.30000000e-12,7.20180352e-01,0.00000000e+00,9.10000000e-02
1.40000000e-12,7.21207970e-01,0.00000000e+00,9.80000000e-02
1.50000000e-12,7.22235588e-01,0.00000000e+00,1.05000000e-01
1.60000000e-12,7.23002462e-01,0.00000000e+00,1.12000000e-01
1.70000000e-12,7.23628936e-01,0.00000000e+00,1.19000000e-01
1.80000000e-12,7.24255411e-01,0.00000000e+00,1.26000000e-01
1.90000000e-12,7.24881885e-01,0.00000000e+00,1.33000000e-01
2.00000000e-12,7.25508359e-01,0.00000000e+00,1.40000000e-01
2.10000000e-12,7.26134833e-01,0.00000000e+00,1.47000000e-01
2.20000000e-12,7.26761308e-01,0.00000000e+00,1.54000000e-01
2.30000000e-12,7.27387782e-01,0.00000000e+00,1.61000000e-01
2.40000000e-12,7.28014256e-01,0.00000000e+00,1.68000000e-01
2.50000000e-12,7.28640730e-01,0.00000000e+00,1.75000000e-01
2.60000000e-12,7.28997637e-01,0.00000000e+00,1.82000000e-01
2.70000000e-12,7.28966631e-01,0.00000000e+00,1.89000000e-01
2.80000000e-12,7.28935625e-01,0.00000000e+00,1.96000000e-01
2.90000000e-12,7.28904618e-01,0.00000000e+00,2.03000000e-01
3.00000000e-12,7.28873612e-01,0.00000000e+00,2.10000000e-01
3.10000000e-12,7.28842606e-01,0.00000000e+00,2.17000000e-01
3.20000000e-12,7.28811599e-01,0.00000000e+00,2.24000000e-01
3.30000000e-12,7.28780593e-01,0.00000000e+00,2.31000000e-01
3.40000000e-12,7.28749587e-01,0.00000000e+00,2.38000000e-01
3.50000000e-12,7.28718580e-01,0.00000000e+00,2.45000000e-01
3.60000000e-12,7.28567693e-01,0.00000000e+00,2.52000000e-01
3.70000000e-12,7.27831503e-01,0.00000000e+00,2.59000000e-01
3.80000000e-12,7.26975069e-01,0.00000000e+00,2.66000000e-01
3.90000000e-12,7.25790828e-01,0.00000000e+00,2.73000000e-01
4.00000000e-12,7.24396081e-01,0.00000000e+00,2.80000000e-01
4.09758194e-12,7.23035059e-01,0.00000000e+00,2.86830736e-01
4.20000000e-12,7.20818484e-01,0.00000000e+00,2.94000000e-01
4.30000000e-12,7.18654242e-01,0.00000000e+00,3.01000000e-01
4.40000000e-12,7.16097617e-01,0.00000000e+00,3.08000000e-01
4.50000000e-12,7.13063868e-01,0.00000000e+00,3.15000000e-01
4.60000000e-12,7.10030119e-01,0.00000000e+00,3.22000000e-01
4.70000000e-12,7.06155689e-01,0.00000000e+00,3.29000000e-01
4.80000000e-12,7.02164838e-01,0.00000000e+00,3.36000000e-01
4.90000000e-12,6.97857604e-01,0.00000000e+00,3.43000000e-01
5.00000000e-12,6.92830966e-01,0.00000000e+00,3.50000000e-01
5.10000000e-12,6.87804327e-01,0.00000000e+00,3.57000000e-01
5.20000000e-12,6.81957519e-01,0.00000000e+00,3.64000000e-01
5.30000000e-12,6.75811260e-01,0.00000000e+00,3.71000000e-01
5.40000000e-12,6.69469162e-01,0.00000000e+00,3.78000000e-01
5.50000000e-12,6.62096092e-01,0.00000000e+00,3.85000000e-01
5.60000000e-12,6.54723023e-01,0.00000000e+00,3.92000000e-01
5.70000000e-12,6.46539163e-01,0.00000000e+00,3.99000000e-01
5.80000000e-12,6.37784196e-01,0.00000000e+00,4.06000000e-01
5.89861874e-12,6.29150157e-01,0.00000000e+00,4.12903312e-01
6.00000000e-12,6.18632421e-01,0.00000000e+00,4.20000000e-01
6.10000000e-12,6.08257984e-01,0.00000000e+00,4.27000000e-01
6.20000000e-12,5.97021310e-01,0.00000000e+00,4.34000000e-01
6.30000000e-12,5.84691258e-01,0.00000000e+00,4.41000000e-01
6.40000000e-12,5.72361206e-01,0.00000000e+00,4.48000000e-01
6.50000000e-12,5.58034676e-01,0.00000000e+00,4.55000000e-01
6.60000000e-12,5.43404516e-01,0.00000000e+00,4.62000000e-01
6.70000000e-12,5.28037739e-01,0.00000000e+00,4.69000000e-01
6.80000000e-12,5.10911275e-01,0.00000000e+00,4.76000000e-01
6.90000000e-12,4.93784812e-01,0.00000000e+00,4.83000000e-01
7.00000000e-12,4.74773709e-01,0.00000000e+00,4.90000000e-01
7.10000000e-12,4.55037570e-01,0.00000000e+00,4.97000000e-01
7.20000000e-12,4.34877126e-01,0.00000000e+00,5.04000000e-01
7.30000000e-12,4.12298340e-01,0.00000000e+00,5.11000000e-01
7.40000000e-12,3.89719553e-01,0.00000000e+00,5.18000000e-01
7.50000000e-12,3.65310496e-01,0.00000000e+00,5.25000000e-01
7.60000000e-12,3.39556110e-01,0.00000000e+00,5.32000000e-01
7.69965554e-12,3.13890440e-01,0.00000000e+00,5.38975887e-01
7.80000000e-12,2.85330813e-01,0.00000000e+00,5.46000000e-01
7.90000000e-12,2.56869226e-01,0.00000000e+00,5.53000000e-01
8.00000000e-12,2.28475876e-01,0.00000000e+00,5.60000000e-01
8.10000000e-12,2.00113496e-01,0.00000000e+00,5.67000000e-01
8.19943899e-12,1.72586797e-01,0.00000000e+00,5.73960729e-01
8.30000000e-12,1.47431842e-01,0.00000000e+00,5.81000000e-01
8.40000000e-12,1.25266606e-01,0.00000000e+00,5.88000000e-01
8.50000000e-12,1.06159349e-01,0.00000000e+00,5.95000000e-01
8.60269578e-12,8.94458381e-02,0.00000000e+00,6.02188705e-01
8.70000000e-12,7.66638026e-02,0.00000000e+00,6.09000000e-01
8.80000000e-12,6.57873207e-02,0.00000000e+00,6.16000000e-01
8.90000000e-12,5.69484727e-02,0.00000000e+00,6.23000000e-01
9.00000000e-12,5.01636082e-02,0.00000000e+00,6.30000000e-01
9.10000000e-12,4.44668092e-02,0.00000000e+00,6.37000000e-01
9.20000000e-12,3.97232172e-02,0.00000000e+00,6.44000000e-01
9.30000000e-12,3.61859464e-02,0.00000000e+00,6.51000000e-01
9.40000000e-12,3.32575500e-02,0.00000000e+00,6.58000000e-01
9.50000000e-12,3.08220629e-02,0.00000000e+00,6.65000000e-01
9.60000000e-12,2.91048178e-02,0.00000000e+00,6.72000000e-01
9.70000000e-12,2.73875726e-02,0.00000000e+00,6.79000000e-01
9.80000000e-12,2.58319695e-02,0.00000000e+00,6.86000000e-01
9.90000000e-12,2.47828450e-02,0.00000000e+00,6.93000000e-01
1.00000000e-11,2.37337206e-02,0.00000000e+00,7.00000000e-01
1.01000000e-11,1.94806540e-02,0.00000000e+00,7.00000000e-01
1.02000000e-11,1.62266806e-02,0.00000000e+00,7.00000000e-01
1.03000000e-11,1.35814951e-02,0.00000000e+00,7.00000000e-01
1.04000000e-11,1.15783529e-02,0.00000000e+00,7.00000000e-01
1.05000000e-11,1.01308517e-02,0.00000000e+00,7.00000000e-01
1.06000000e-11,9.01521841e-03,0.00000000e+00,7.00000000e-01
1.07000000e-11,8.08742990e-03,0.00000000e+00,7.00000000e-01
1.08000000e-11,7.15964139e-03,0.00000000e+00,7.00000000e-01
1.09000000e-11,6.66738107e-03,0.00000000e+00,7.00000000e-01
1.10000000e-11,6.19848657e-03,0.00000000e+00,7.00000000e-01
1.11000000e-11,5.72959208e-03,0.00000000e+00,7.00000000e-01
1.12000000e-11,5.26069758e-03,0.00000000e+00,7.00000000e-01
1.13000000e-11,4.79180308e-03,0.00000000e+00,7.00000000e-01
1.14000000e-11,4.47435801e-03,0.00000000e+00,7.00000000e-01
1.15000000e-11,4.25375490e-03,0.00000000e+00,7.00000000e-01
1.16000000e-11,4.03315180e-03,0.00000000e+00,7.00000000e-01
1.17000000e-11,3.81254870e-03,0.00000000e+00,7.00000000e-01
1.18000000e-11,3.59194559e-03,0.00000000e+00,7.00000000e-01
1.19000000e-11,3.39284663e-03,0.00000000e+00,7.00000000e-01
1.20000000e-11,3.25163835e-03,0.00000000e+00,7.00000000e-01
1.21000000e-11,3.11043007e-03,0.00000000e+00,7.00000000e-01
1.22000000e-11,2.96922179e-03,0.00000000e+00,7.00000000e-01
1.23000000e-11,2.82801351e-03,0.00000000e+00,7.00000000e-01
1.24000000e-11,2.68680523e-03,0.00000000e+00,7.00000000e-01
1.25000000e-11,2.59862815e-03,0.00000000e+00,7.00000000e-01
1.26000000e-11,2.51433649e-03,0.00000000e+00,7.00000000e-01
1.27000000e-11,2.43004484e-03,0.00000000e+00,7.00000000e-01
1.28000000e-11,2.34575318e-03,0.00000000e+00,7.00000000e-01
1.29000000e-11,2.26146153e-03,0.00000000e+00,7.00000000e-01
1.30000000e-11,2.17716987e-03,0.00000000e+00,7.00000000e-01
1.31000000e-11,2.09287822e-03,0.00000000e+00,7.00000000e-01
1.32000000e-11,2.00858656e-03,0.00000000e+00,7.00000000e-01
1.33000000e-11,1.92429491e-03,0.00000000e+00,7.00000000e-01
1.34000000e-11,1.84000325e-03,0.00000000e+00,7.00000000e-01
1.35000000e-11,1.76771344e-03,0.00000000e+00,7.00000000e-01
1.36000000e-11,1.73076576e-03,0.00000000e+00,7.00000000e-01
1.37000000e-11,1.69381808e-03,0.00000000e+00,7.00000000e-01
1.38000000e-11,1.65687040e-03,0.00000000e+00,7.00000000e-01
1.39000000e-11,1.61992272e-03,0.00000000e+00,7.00000000e-01
1.40000000e-11,1.58297504e-03,0.00000000e+00,7.00000000e-01
1.41000000e-11,1.54602736e-03,0.00000000e+00,7.00000000e-01
1.42000000e-11,1.50907968e-03,0.00000000e+00,7.00000000e-01
1.43000000e-11,1.47213200e-03,0.00000000e+00,7.00000000e-01
1.44000000e-11,1.43518432e-03,0.00000000e+00,7.00000000e-01
1.45000000e-11,1.39823664e-03,0.00000000e+00,7.00000000e-01
1.46000000e-11,1.36128896e-03,0.00000000e+00,7.00000000e-01
1.47000000e-11,1.32434128e-03,0.00000000e+00,7.00000000e-01
1.48000000e-11,1.28739360e-03,0.00000000e+00,7.00000000e-01
1.49000000e-11,1.25044592e-03,0.00000000e+00,7.00000000e-01
1.50000000e-11,1.21349824e-03,0.00000000e+00,7.00000000e-01
1.51000000e-11,1.17655056e-03,0.00000000e+00,7.00000000e-01
1.52000000e-11,1.13960288e-03,0.00000000e+00,7.00000000e-01
1.53000000e-11,1.10265520e-03,0.00000000e+00,7.00000000e-01
1.54000000e-11,1.06570752e-03,0.00000000e+00,7.00000000e-01
1.55000000e-11,1.02875984e-03,0.00000000e+00,7.00000000e-01
1.56000000e-11,9.91812161e-04,0.00000000e+00,7.00000000e-01
1.57000000e-11,9.74842380e-04,0.00000000e+00,7.00000000e-01
1.58000000e-11,9.60165618e-04,0.00000000e+00,7.00000000e-01
1.59000000e-11,9.45488857e-04,0.00000000e+00,7.00000000e-01
1.60000000e-11,9.30812095e-04,0.00000000e+00,7.00000000e-01
1.61000000e-11,9.16135333e-04,0.00000000e+00,7.00000000e-01
1.62000000e-11,9.01458572e-04,0.00000000e+00,7.00000000e-01
1.63000000e-11,8.86781810e-04,0.00000000e+00,7.00000000e-01
1.64000000e-11,8.72105049e-04,0.00000000e+00,7.00000000e-01
1.65000000e-11,8.57428287e-04,0.00000000e+00,7.00000000e-01
1.66000000e-11,8.42751525e-04,0.00000000e+00,7.00000000e-01
1.67000000e-11,8.28074764e-04,0.00000000e+00,7.00000000e-01
1.68000000e-11,8.13398002e-04,0.00000000e+00,7.00000000e-01
1.69000000e-11,7.98721241e-04,0.00000000e+00,7.00000000e-01
1.70000000e-11,7.84044479e-04,0.00000000e+00,7.00000000e-01
1.71000000e-11,7.69367717e-04,0.00000000e+00,7.00000000e-01
1.72000000e-11,7.54690956e-04,0.00000000e+00,7.00000000e-01
1.73000000e-11,7.40014194e-04,0.00000000e+00,7.00000000e-01
1.74000000e-11,7.25337433e-04,0.00000000e+00,7.00000000e-01
1.75000000e-11,7.10660671e-04,0.00000000e+00,7.00000000e-01
1.76000000e-11,6.95983909e-04,0.00000000e+00,7.00000000e-01
1.77000000e-11,6.81307148e-04,0.00000000e+00,7.00000000e-01
1.78000000e-11,6.70063318e-04,0.00000000e+00,7.00000000e-01
1.79000000e-11,6.61737061e-04,0.00000000e+00,7.00000000e-01
1.80000000e-11,6.53410803e-04,0.00000000e+00,7.00000000e-01
1.81000000e-11,6.45084545e-04,0.00000000e+00,7.00000000e-01
1.82000000e-11,6.36758287e-04,0.00000000e+00,7.00000000e-01
1.83000000e-11,6.28432029e-04,0.00000000e+00,7.00000000e-01
1.84000000e-11,6.20105772e-04,0.00000000e+00,7.00000000e-01
1.85000000e-11,6.11779514e-04,0.00000000e+00,7.00000000e-01
1.86000000e-11,6.03453256e-04,0.00000000e+00,7.00000000e-01
1.87000000e-11,5.95126998e-04,0.00000000e+00,7.00000000e-01
1.88000000e-11,5.86800740e-04,0.00000000e+00,7.00000000e-01
1.89000000e-11,5.78474483e-04,0.00000000e+00,7.00000000e-01
1.90000000e-11,5.70148225e-04,0.00000000e+00,7.00000000e-01
1.91000000e-11,5.61821967e-04,0.00000000e+00,7.00000000e-01
1.92000000e-11,5.53495709e-04,0.00000000e+00,7.00000000e-01
1.93000000e-11,5.45169451e-04,0.00000000e+00,7.00000000e-01
1.94000000e-11,5.36843194e-04,0.00000000e+00,7.00000000e-01
1.95000000e-11,5.28516936e-04,0.00000000e+00,7.00000000e-01
1.96000000e-11,5.20190678e-04,0.00000000e+00,7.00000000e-01
1.97000000e-11,5.11864420e-04,0.00000000e+00,7.00000000e-01
1.98000000e-11,5.03538162e-04,0.00000000e+00,7.00000000e-01
1.99000000e-11,4.95990984e-04,0.00000000e+00,7.00000000e-01
2.00000000e-11,4.91896254e-04,0.00000000e+00,7.00000000e-01
2.01000000e-11,4.87801524e-04,0.00000000e+00,7.00000000e-01
2.02000000e-11,4.83706793e-04,0.00000000e+00,7.00000000e-01
2.03000000e-11,4.79612063e-04,0.00000000e+00,7.00000000e-01
2.04000000e-11,4.75517333e-04,0.00000000e+00,7.00000000e-01
2.05000000e-11,4.71422603e-04,0.00000000e+00,7.00000000e-01
2.06000000e-11,4.67327873e-04,0.00000000e+00,7.00000000e-01
2.07000000e-11,4.63233143e-04,0.00000000e+00,7.00000000e-01
2.08000000e-11,4.59138412e-04,0.00000000e+00,7.00000000e-01
2.09000000e-11,4.55043682e-04,0.00000000e+00,7.00000000e-01
2.10000000e-11,4.50948952e-04,0.00000000e+00,7.00000000e-01
2.11000000e-11,4.46854222e-04,0.00000000e+00,7.00000000e-01
2.12000000e-11,4.42759492e-04,0.00000000e+00,7.00000000e-01
2.13000000e-11,4.38664762e-04,0.00000000e+00,7.00000000e-01
2.14000000e-11,4.34570031e-04,0.00000000e+00,7.00000000e-01
2.15000000e-11,4.30475301e-04,0.00000000e+00,7.00000000e-01
2.16000000e-11,4.26380571e-04,0.00000000e+00,7.00000000e-01
2.17000000e-11,4.22285841e-04,0.00000000e+00,7.00000000e-01
2.18000000e-11,4.18191111e-04,0.00000000e+00,7.00000000e-01
2.19000000e-11,4.14096381e-04,0.00000000e+00,7.00000000e-01
2.20000000e-11,4.10001650e-04,0.00000000e+00,7.00000000e-01
2.21000000e-11,4.05906920e-04,0.00000000e+00,7.00000000e-01
2.22000000e-11,4.01812190e-04,0.00000000e+00,7.00000000e-01
2.23000000e-11,3.97717460e-04,0.00000000e+00,7.00000000e-01
2.24000000e-11,3.93622730e-04,0.00000000e+00,7.00000000e-01
2.25000000e-11,3.89528000e-04,0.00000000e+00,7.00000000e-01
2.26000000e-11,3.85433270e-04,0.00000000e+00,7.00000000e-01
2.27000000e-11,3.81338539e-04,0.00000000e+00,7.00000000e-01
2.28000000e-11,3.77243809e-04,0.00000000e+00,7.00000000e-01
2.29000000e-11,3.73149079e-04,0.00000000e+00,7.00000000e-01
2.30000000e-11,3.69054349e-04,0.00000000e+00,7.00000000e-01
2.31000000e-11,3.64959619e-04,0.00000000e+00,7.00000000e-01
2.32000000e-11,3.60864889e-04,0.00000000e+00,7.00000000e-01
2.33000000e-11,3.56770158e-04,0.00000000e+00,7.00000000e-01
2.34000000e-11,3.52675428e-04,0.00000000e+00,7.00000000e-01
2.35000000e-11,3.48580698e-04,0.00000000e+00,7.00000000e-01
2.36000000e-11,3.44485968e-04,0.00000000e+00,7.00000000e-01
2.37000000e-11,3.40391238e-04,0.00000000e+00,7.00000000e-01
2.38000000e-11,3.36296508e-04,0.00000000e+00,7.00000000e-01
2.39000000e-11,3.32201777e-04,0.00000000e+00,7.00000000e-01
2.40000000e-11,3.28107047e-04,0.00000000e+00,7.00000000e-01
2.41000000e-11,3.24012317e-04,0.00000000e+00,7.00000000e-01
2.42000000e-11,3.20885613e-04,0.00000000e+00,7.00000000e-01
2.43000000e-11,3.18845327e-04,0.00000000e+00,7.00000000e-01
2.44000000e-11,3.16805042e-04,0.00000000e+00,7.00000000e-01
2.45000000e-11,3.14764756e-04,0.00000000e+00,7.00000000e-01
2.46000000e-11,3.12724471e-04,0.00000000e+00,7.00000000e-01
2.47000000e-11,3.10684185e-04,0.00000000e+00,7.00000000e-01
2.48000000e-11,3.08643900e-04,0.00000000e+00,7.00000000e-01
2.49000000e-11,3.06603614e-04,0.00000000e+00,7.00000000e-01
2.50000000e-11,3.04563328e-04,0.00000000e+00,7.00000000e-01
2.51000000e-11,3.02523043e-04,0.00000000e+00,7.00000000e-01
2.52000000e-11,3.00482757e-04,0.00000000e+00,7.00000000e-01
2.53000000e-11,2.98442472e-04,0.00000000e+00,7.00000000e-01
2.54000000e-11,2.96402186e-04,0.00000000e+00,7.00000000e-01
2.55000000e-11,2.94361900e-04,0.00000000e+00,7.00000000e-01
2.56000000e-11,2.92321615e-04,0.00000000e+00,7.00000000e-01
2.57000000e-11,2.90281329e-04,0.00000000e+00,7.00000000e-01
2.58000000e-11,2.88241044e-04,0.00000000e+00,7.00000000e-01
2.59000000e-11,2.86200758e-04,0.00000000e+00,7.00000000e-01
2.60000000e-11,2.84160473e-04,0.00000000e+00,7.00000000e-01
2.61000000e-11,2.82120187e-04,0.00000000e+00,7.00000000e-01
2.62000000e-11,2.80079901e-04,0.00000000e+00,7.00000000e-01
2.63000000e-11,2.78039616e-04,0.00000000e+00,7.00000000e-01
2.64000000e-11,2.75999330e-04,0.00000000e+00,7.00000000e-01
2.65000000e-11,2.73959045e-04,0.00000000e+00,7.00000000e-01
2.66000000e-11,2.71918759e-04,0.00000000e+00,7.00000000e-01
2.67000000e-11,2.69878473e-04,0.00000000e+00,7.00000000e-01
2.68000000e-11,2.67838188e-04,0.00000000e+00,7.00000000e-01
2.69000000e-11,2.65797902e-04,0.00000000e+00,7.00000000e-01
2.70000000e-11,2.63757617e-04,0.00000000e+00,7.00000000e-01
2.71000000e-11,2.61717331e-04,0.00000000e+00,7.00000000e-01
2.72000000e-11,2.59677046e-04,0.00000000e+00,7.00000000e-01
2.73000000e-11,2.57636760e-04,0.00000000e+00,7.00000000e-01
2.74000000e-11,2.55596474e-04,0.00000000e+00,7.00000000e-01
2.75000000e-11,2.53556189e-04,0.00000000e+00,7.00000000e-01
2.76000000e-11,2.51515903e-04,0.00000000e+00,7.00000000e-01
2.77000000e-11,2.49475618e-04,0.00000000e+00,7.00000000e-01
2.78000000e-11,2.47435332e-04,0.00000000e+00,7.00000000e-01
2.79000000e-11,2.45395046e-04,0.00000000e+00,7.00000000e-01
2.80000000e-11,2.43354761e-04,0.00000000e+00,7.00000000e-01
2.81000000e-11,2.41314475e-04,0.00000000e+00,7.00000000e-01
2.82000000e-11,2.39274190e-04,0.00000000e+00,7.00000000e-01
2.83000000e-11,2.37233904e-04,0.00000000e+00,7.00000000e-01
2.84000000e-11,2.35193619e-04,0.00000000e+00,7.00000000e-01
2.85000000e-11,2.33819545e-04,0.00000000e+00,7.00000000e-01
2.86000000e-11,2.32657865e-04,0.00000000e+00,7.00000000e-01
2.87000000e-11,2.31496186e-04,0.00000000e+00,7.00000000e-01
2.88000000e-11,2.30334507e-04,0.00000000e+00,7.00000000e-01
2.89000000e-11,2.29172828e-04,0.00000000e+00,7.00000000e-01
2.90000000e-11,2.28011149e-04,0.00000000e+00,7.00000000e-01
2.91000000e-11,2.26849470e-04,0.00000000e+00,7.00000000e-01
2.92000000e-11,2.25687790e-04,0.00000000e+00,7.00000000e-01
2.93000000e-11,2.24526111e-04,0.00000000e+00,7.00000000e-01
2.94000000e-11,2.23364432e-04,0.00000000e+00,7.00000000e-01
2.95000000e-11,2.22202753e-04,0.00000000e+00,7.00000000e-01
2.96000000e-11,2.21041074e-04,0.00000000e+00,7.00000000e-01
2.97000000e-11,2.19879394e-04,0.00000000e+00,7.00000000e-01
2.98000000e-11,2.18717715e-04,0.00000000e+00,7.00000000e-01
2.99000000e-11,2.17556036e-04,0.00000000e+00,7.00000000e-01
3.00000000e-11,2.16394357e-04,0.00000000e+00,7.00000000e-01
3.01000000e-11,2.15232678e-04,0.00000000e+00,7.00000000e-01
3.02000000e-11,2.14070998e-04,0.00000000e+00,7.00000000e-01
3.03000000e-11,2.12909319e-04,0.00000000e+00,7.00000000e-01
3.04000000e-11,2.11747640e-04,0.00000000e+00,7.00000000e-01
3.05000000e-11,2.10585961e-04,0.00000000e+00,7.00000000e-01
3.06000000e-11,2.09424282e-04,0.00000000e+00,7.00000000e-01
3.07000000e-11,2.08262602e-04,0.00000000e+00,7.00000000e-01
3.08000000e-11,2.07100923e-04,0.00000000e+00,7.00000000e-01
3.09000000e-11,2.05939244e-04,0.00000000e+00,7.00000000e-01
3.10000000e-11,2.04777565e-04,0.00000000e+00,7.00000000e-01
3.11000000e-11,2.03615886e-04,0.00000000e+00,7.00000000e-01
3.12000000e-11,2.02454207e-04,0.00000000e+00,7.00000000e-01
3.13000000e-11,2.01292527e-04,0.00000000e+00,7.00000000e-01
3.14000000e-11,2.00130848e-04,0.00000000e+00,7.00000000e-01
3.15000000e-11,1.98969169e-04,0.00000000e+00,7.00000000e-01
3.16000000e-11,1.97807490e-04,0.00000000e+00,7.00000000e-01
3.17000000e-11,1.96645811e-04,0.00000000e+00,7.00000000e-01
3.18000000e-11,1.95484131e-04,0.00000000e+00,7.00000000e-01
3.19000000e-11,1.94322452e-04,0.00000000e+00,7.00000000e-01
3.20000000e-11,1.93160773e-04,0.00000000e+00,7.00000000e-01
3.21000000e-11,1.91999094e-04,0.00000000e+00,7.00000000e-01
3.22000000e-11,1.90837415e-04,0.00000000e+00,7.00000000e-01
3.23000000e-11,1.89675735e-04,0.00000000e+00,7.00000000e-01
3.24000000e-11,1.88514056e-04,0.00000000e+00,7.00000000e-01
3.25000000e-11,1.87352377e-04,0.00000000e+00,7.00000000e-01
3.26000000e-11,1.86190698e-04,0.00000000e+00,7.00000000e-01
3.27000000e-11,1.85051043e-04,0.00000000e+00,7.00000000e-01
3.28000000e-11,1.84375204e-04,0.00000000e+00,7.00000000e-01
3.29000000e-11,1.83699364e-04,0.00000000e+00,7.00000000e-01
3.30000000e-11,1.83023525e-04,0.00000000e+00,7.00000000e-01
3.31000000e-11,1.82347685e-04,0.00000000e+00,7.00000000e-01
