TIME,V(OUT),V(IN1),V(IN2)
0.00000000e+00,6.99998729e-01,0.00000000e+00,0.00000000e+00
1.00000000e-13,7.01525680e-01,0.00000000e+00,7.00000000e-03
2.00000000e-13,7.03454947e-01,0.00000000e+00,1.40000000e-02
3.00000000e-13,7.05442721e-01,0.00000000e+00,2.10000000e-02
4.00000000e-13,7.07425884e-01,0.00000000e+00,2.80000000e-02
5.00000000e-13,7.09409046e-01,0.00000000e+00,3.50000000e-02
6.00000000e-13,7.11153941e-01,0.00000000e+00,4.20000000e-02
7.00000000e-13,7.12869386e-01,0.00000000e+00,4.90000000e-02
8.00000000e-13,7.14485025e-01,0.00000000e+00,5.60000000e-02
9.00000000e-13,7.15898027e-01,0.00000000e+00,6.30000000e-02
1.00000000e-12,7.17311028e-01,0.00000000e+00,7.00000000e-02
1.10000000e-12,7.18479629e-01,0.00000000e+00,7.70000000e-02
1.20000000e-12,7.19575228e-01,0.00000000e+00,8.40000000e-02
1.30000000e-12,7.20670827e-01,0.00000000e+00,9.10000000e-02
1.40000000e-12,7.21766426e-01,0.00000000e+00,9.80000000e-02
1.50000000e-12,7.22862025e-01,0.00000000e+00,1.05000000e-01
1.60000000e-12,7.23726786e-01,0.00000000e+00,1.12000000e-01
1.70000000e-12,7.24467250e-01,0.00000000e+00,1.19000000e-01
1.80000000e-12,7.25207714e-01,0.00000000e+00,1.26000000e-01
1.90000000e-12,7.25948177e-01,0.00000000e+00,1.33000000e-01
2.00000000e-12,7.26688641e-01,0.00000000e+00,1.40000000e-01
2.10000000e-12,7.27429105e-01,0.00000000e+00,1.47000000e-01
2.20000000e-12,7.28169568e-01,0.00000000e+00,1.54000000e-01
2.30000000e-12,7.28910032e-01,0.00000000e+00,1.61000000e-01
2.40000000e-12,7.29650496e-01,0.00000000e+00,1.68000000e-01
2.50000000e-12,7.30390960e-01,0.00000000e+00,1.75000000e-01
2.60000000e-12,7.31045985e-01,0.00000000e+00,1.82000000e-01
2.70000000e-12,7.31578064e-01,0.00000000e+00,1.89000000e-01
2.80000000e-12,7.32110143e-01,0.00000000e+00,1.96000000e-01
2.90000000e-12,7.32627338e-01,0.00000000e+00,2.03000000e-01
3.00000000e-12,7.33135989e-01,0.00000000e+00,2.10000000e-01
3.10000000e-12,7.33644640e-01,0.00000000e+00,2.17000000e-01
3.20000000e-12,7.34028232e-01,0.00000000e+00,2.24000000e-01
3.30000000e-12,7.34391576e-01,0.00000000e+00,2.31000000e-01
3.40000000e-12,7.34754919e-01,0.00000000e+00,2.38000000e-01
3.50000000e-12,7.35118263e-01,0.00000000e+00,2.45000000e-01
3.60000000e-12,7.35481607e-01,0.00000000e+00,2.52000000e-01
3.70000000e-12,7.35708792e-01,0.00000000e+00,2.59000000e-01
3.80000000e-12,7.35634768e-01,0.00000000e+00,2.66000000e-01
3.90000000e-12,7.35560744e-01,0.00000000e+00,2.73000000e-01
4.00000000e-12,7.35486719e-01,0.00000000e+00,2.80000000e-01
4.10000000e-12,7.35412695e-01,0.00000000e+00,2.87000000e-01
4.20000000e-12,7.35338671e-01,0.00000000e+00,2.94000000e-01
4.30000000e-12,7.34487713e-01,0.00000000e+00,3.01000000e-01
4.40000000e-12,7.33394050e-01,0.00000000e+00,3.08000000e-01
4.50000000e-12,7.32300386e-01,0.00000000e+00,3.15000000e-01
4.60000000e-12,7.31206723e-01,0.00000000e+00,3.22000000e-01
4.70000000e-12,7.30113059e-01,0.00000000e+00,3.29000000e-01
4.80000000e-12,7.28659190e-01,0.00000000e+00,3.36000000e-01
4.90000000e-12,7.25871434e-01,0.00000000e+00,3.43000000e-01
5.00000000e-12,7.23083677e-01,0.00000000e+00,3.50000000e-01
5.10000000e-12,7.20295921e-01,0.00000000e+00,3.57000000e-01
5.20000000e-12,7.17508165e-01,0.00000000e+00,3.64000000e-01
5.30000000e-12,7.14720408e-01,0.00000000e+00,3.71000000e-01
5.40000000e-12,7.10519681e-01,0.00000000e+00,3.78000000e-01
5.50000000e-12,7.05601647e-01,0.00000000e+00,3.85000000e-01
5.60000000e-12,7.00683614e-01,0.00000000e+00,3.92000000e-01
5.70000000e-12,6.95765580e-01,0.00000000e+00,3.99000000e-01
5.80000000e-12,6.90847547e-01,0.00000000e+00,4.06000000e-01
5.90000000e-12,6.84107307e-01,0.00000000e+00,4.13000000e-01
6.00000000e-12,6.76816998e-01,0.00000000e+00,4.20000000e-01
6.10000000e-12,6.69526690e-01,0.00000000e+00,4.27000000e-01
6.20000000e-12,6.62236381e-01,0.00000000e+00,4.34000000e-01
6.30000000e-12,6.53614709e-01,0.00000000e+00,4.41000000e-01
6.40000000e-12,6.43679319e-01,0.00000000e+00,4.48000000e-01
6.50000000e-12,6.33743929e-01,0.00000000e+00,4.55000000e-01
6.60000000e-12,6.23808539e-01,0.00000000e+00,4.62000000e-01
6.70000000e-12,6.11699942e-01,0.00000000e+00,4.69000000e-01
6.80000000e-12,5.98967905e-01,0.00000000e+00,4.76000000e-01
6.90000000e-12,5.86235867e-01,0.00000000e+00,4.83000000e-01
7.00000000e-12,5.72070635e-01,0.00000000e+00,4.90000000e-01
7.10000000e-12,5.56658889e-01,0.00000000e+00,4.97000000e-01
7.20000000e-12,5.41247144e-01,0.00000000e+00,5.04000000e-01
7.30000000e-12,5.24169670e-01,0.00000000e+00,5.11000000e-01
7.40000000e-12,5.06057386e-01,0.00000000e+00,5.18000000e-01
7.50000000e-12,4.87945101e-01,0.00000000e+00,5.25000000e-01
7.60000000e-12,4.67649226e-01,0.00000000e+00,5.32000000e-01
7.70000000e-12,4.46412143e-01,0.00000000e+00,5.39000000e-01
7.80000000e-12,4.25175061e-01,0.00000000e+00,5.46000000e-01
7.90000000e-12,4.01041494e-01,0.00000000e+00,5.53000000e-01
8.00000000e-12,3.76094657e-01,0.00000000e+00,5.60000000e-01
8.10000000e-12,3.50540850e-01,0.00000000e+00,5.67000000e-01
8.20000000e-12,3.21666891e-01,0.00000000e+00,5.74000000e-01
8.30000000e-12,2.92792933e-01,0.00000000e+00,5.81000000e-01
8.40000000e-12,2.62212088e-01,0.00000000e+00,5.88000000e-01
8.50000000e-12,2.31180145e-01,0.00000000e+00,5.95000000e-01
8.60000000e-12,2.01626064e-01,0.00000000e+00,6.02000000e-01
8.70000000e-12,1.72820733e-01,0.00000000e+00,6.09000000e-01
8.80000000e-12,1.46954572e-01,0.00000000e+00,6.16000000e-01
8.90000000e-12,1.23627746e-01,0.00000000e+00,6.23000000e-01
9.00000000e-12,1.04207167e-01,0.00000000e+00,6.30000000e-01
9.10000000e-12,8.71091028e-02,0.00000000e+00,6.37000000e-01
9.20000000e-12,7.39592377e-02,0.00000000e+00,6.44000000e-01
9.30000000e-12,6.33188441e-02,0.00000000e+00,6.51000000e-01
9.40000000e-12,5.44904792e-02,0.00000000e+00,6.58000000e-01
9.50000000e-12,4.75002116e-02,0.00000000e+00,6.65000000e-01
9.60000000e-12,4.22821030e-02,0.00000000e+00,6.72000000e-01
9.70000000e-12,3.79457517e-02,0.00000000e+00,6.79000000e-01
9.80000000e-12,3.44004193e-02,0.00000000e+00,6.86000000e-01
9.90000000e-12,3.17498167e-02,0.00000000e+00,6.93000000e-01
1.00000000e-11,2.94763954e-02,0.00000000e+00,7.00000000e-01
1.01000000e-11,2.41619388e-02,0.00000000e+00,7.00000000e-01
1.02000000e-11,2.00222607e-02,0.00000000e+00,7.00000000e-01
1.03000000e-11,1.68446489e-02,0.00000000e+00,7.00000000e-01
1.04000000e-11,1.46074976e-02,0.00000000e+00,7.00000000e-01
1.05000000e-11,1.24352960e-02,0.00000000e+00,7.00000000e-01
1.06000000e-11,1.11886696e-02,0.00000000e+00,7.00000000e-01
1.07000000e-11,1.00391692e-02,0.00000000e+00,7.00000000e-01
1.08000000e-11,8.88966868e-03,0.00000000e+00,7.00000000e-01
1.09000000e-11,7.74016819e-03,0.00000000e+00,7.00000000e-01
1.10000000e-11,7.13006946e-03,0.00000000e+00,7.00000000e-01
1.11000000e-11,6.61398691e-03,0.00000000e+00,7.00000000e-01
1.12000000e-11,6.09790435e-03,0.00000000e+00,7.00000000e-01
1.13000000e-11,5.58182180e-03,0.00000000e+00,7.00000000e-01
1.14000000e-11,5.23560903e-03,0.00000000e+00,7.00000000e-01
1.15000000e-11,4.93236482e-03,0.00000000e+00,7.00000000e-01
1.16000000e-11,4.62912060e-03,0.00000000e+00,7.00000000e-01
1.17000000e-11,4.32587639e-03,0.00000000e+00,7.00000000e-01
1.18000000e-11,4.11606210e-03,0.00000000e+00,7.00000000e-01
1.19000000e-11,3.93828450e-03,0.00000000e+00,7.00000000e-01
1.20000000e-11,3.76050690e-03,0.00000000e+00,7.00000000e-01
1.21000000e-11,3.58272930e-03,0.00000000e+00,7.00000000e-01
1.22000000e-11,3.40495170e-03,0.00000000e+00,7.00000000e-01
1.23000000e-11,3.22717410e-03,0.00000000e+00,7.00000000e-01
1.24000000e-11,3.04939650e-03,0.00000000e+00,7.00000000e-01
1.25000000e-11,2.87161890e-03,0.00000000e+00,7.00000000e-01
1.26000000e-11,2.74776910e-03,0.00000000e+00,7.00000000e-01
1.27000000e-11,2.65455150e-03,0.00000000e+00,7.00000000e-01
1.28000000e-11,2.56133389e-03,0.00000000e+00,7.00000000e-01
1.29000000e-11,2.46811629e-03,0.00000000e+00,7.00000000e-01
1.30000000e-11,2.37489868e-03,0.00000000e+00,7.00000000e-01
1.31000000e-11,2.28168107e-03,0.00000000e+00,7.00000000e-01
1.32000000e-11,2.18846347e-03,0.00000000e+00,7.00000000e-01
1.33000000e-11,2.09524586e-03,0.00000000e+00,7.00000000e-01
1.34000000e-11,2.02070357e-03,0.00000000e+00,7.00000000e-01
1.35000000e-11,1.96266713e-03,0.00000000e+00,7.00000000e-01
1.36000000e-11,1.90463070e-03,0.00000000e+00,7.00000000e-01
1.37000000e-11,1.84659426e-03,0.00000000e+00,7.00000000e-01
1.38000000e-11,1.78855782e-03,0.00000000e+00,7.00000000e-01
1.39000000e-11,1.73052139e-03,0.00000000e+00,7.00000000e-01
1.40000000e-11,1.67248495e-03,0.00000000e+00,7.00000000e-01
1.41000000e-11,1.61444852e-03,0.00000000e+00,7.00000000e-01
1.42000000e-11,1.56691902e-03,0.00000000e+00,7.00000000e-01
1.43000000e-11,1.53366785e-03,0.00000000e+00,7.00000000e-01
1.44000000e-11,1.50041667e-03,0.00000000e+00,7.00000000e-01
1.45000000e-11,1.46716550e-03,0.00000000e+00,7.00000000e-01
1.46000000e-11,1.43391433e-03,0.00000000e+00,7.00000000e-01
1.47000000e-11,1.40066315e-03,0.00000000e+00,7.00000000e-01
1.48000000e-11,1.36741198e-03,0.00000000e+00,7.00000000e-01
1.49000000e-11,1.33416081e-03,0.00000000e+00,7.00000000e-01
1.50000000e-11,1.30090963e-03,0.00000000e+00,7.00000000e-01
1.51000000e-11,1.26765846e-03,0.00000000e+00,7.00000000e-01
1.52000000e-11,1.23440728e-03,0.00000000e+00,7.00000000e-01
1.53000000e-11,1.20115611e-03,0.00000000e+00,7.00000000e-01
1.54000000e-11,1.16790494e-03,0.00000000e+00,7.00000000e-01
1.55000000e-11,1.13465376e-03,0.00000000e+00,7.00000000e-01
1.56000000e-11,1.10140259e-03,0.00000000e+00,7.00000000e-01
1.57000000e-11,1.06815142e-03,0.00000000e+00,7.00000000e-01
1.58000000e-11,1.03893310e-03,0.00000000e+00,7.00000000e-01
1.59000000e-11,1.02487761e-03,0.00000000e+00,7.00000000e-01
1.60000000e-11,1.01082212e-03,0.00000000e+00,7.00000000e-01
1.61000000e-11,9.96766635e-04,0.00000000e+00,7.00000000e-01
1.62000000e-11,9.82711147e-04,0.00000000e+00,7.00000000e-01
1.63000000e-11,9.68655659e-04,0.00000000e+00,7.00000000e-01
1.64000000e-11,9.54600171e-04,0.00000000e+00,7.00000000e-01
1.65000000e-11,9.40544683e-04,0.00000000e+00,7.00000000e-01
1.66000000e-11,9.26489195e-04,0.00000000e+00,7.00000000e-01
1.67000000e-11,9.12433707e-04,0.00000000e+00,7.00000000e-01
1.68000000e-11,8.98378220e-04,0.00000000e+00,7.00000000e-01
1.69000000e-11,8.84322732e-04,0.00000000e+00,7.00000000e-01
1.70000000e-11,8.70267244e-04,0.00000000e+00,7.00000000e-01
1.71000000e-11,8.56211756e-04,0.00000000e+00,7.00000000e-01
1.72000000e-11,8.42156268e-04,0.00000000e+00,7.00000000e-01
1.73000000e-11,8.28100780e-04,0.00000000e+00,7.00000000e-01
1.74000000e-11,8.14045292e-04,0.00000000e+00,7.00000000e-01
1.75000000e-11,7.99989804e-04,0.00000000e+00,7.00000000e-01
1.76000000e-11,7.85934316e-04,0.00000000e+00,7.00000000e-01
1.77000000e-11,7.71878828e-04,0.00000000e+00,7.00000000e-01
1.78000000e-11,7.57823341e-04,0.00000000e+00,7.00000000e-01
1.79000000e-11,7.43767853e-04,0.00000000e+00,7.00000000e-01
1.80000000e-11,7.29712365e-04,0.00000000e+00,7.00000000e-01
1.81000000e-11,7.15656877e-04,0.00000000e+00,7.00000000e-01
1.82000000e-11,7.01601389e-04,0.00000000e+00,7.00000000e-01
1.83000000e-11,6.87545901e-04,0.00000000e+00,7.00000000e-01
1.84000000e-11,6.73490413e-04,0.00000000e+00,7.00000000e-01
1.85000000e-11,6.59434925e-04,0.00000000e+00,7.00000000e-01
1.86000000e-11,6.45379437e-04,0.00000000e+00,7.00000000e-01
1.87000000e-11,6.31323949e-04,0.00000000e+00,7.00000000e-01
1.88000000e-11,6.17268461e-04,0.00000000e+00,7.00000000e-01
1.89000000e-11,6.03212974e-04,0.00000000e+00,7.00000000e-01
1.90000000e-11,5.89157486e-04,0.00000000e+00,7.00000000e-01
1.91000000e-11,5.81725106e-04,0.00000000e+00,7.00000000e-01
1.92000000e-11,5.76134330e-04,0.00000000e+00,7.00000000e-01
1.93000000e-11,5.70543554e-04,0.00000000e+00,7.00000000e-01
1.94000000e-11,5.64952778e-04,0.00000000e+00,7.00000000e-01
1.95000000e-11,5.59362001e-04,0.00000000e+00,7.00000000e-01
1.96000000e-11,5.53771225e-04,0.00000000e+00,7.00000000e-01
1.97000000e-11,5.48180449e-04,0.00000000e+00,7.00000000e-01
1.98000000e-11,5.42589673e-04,0.00000000e+00,7.00000000e-01
1.99000000e-11,5.36998897e-04,0.00000000e+00,7.00000000e-01
2.00000000e-11,5.31408121e-04,0.00000000e+00,7.00000000e-01
2.01000000e-11,5.25817345e-04,0.00000000e+00,7.00000000e-01
2.02000000e-11,5.20226568e-04,0.00000000e+00,7.00000000e-01
2.03000000e-11,5.14635792e-04,0.00000000e+00,7.00000000e-01
2.04000000e-11,5.09045016e-04,0.00000000e+00,7.00000000e-01
2.05000000e-11,5.03454240e-04,0.00000000e+00,7.00000000e-01
2.06000000e-11,4.97863464e-04,0.00000000e+00,7.00000000e-01
2.07000000e-11,4.92272688e-04,0.00000000e+00,7.00000000e-01
2.08000000e-11,4.86681911e-04,0.00000000e+00,7.00000000e-01
2.09000000e-11,4.81091135e-04,0.00000000e+00,7.00000000e-01
2.10000000e-11,4.75500359e-04,0.00000000e+00,7.00000000e-01
2.11000000e-11,4.69909583e-04,0.00000000e+00,7.00000000e-01
2.12000000e-11,4.64318807e-04,0.00000000e+00,7.00000000e-01
2.13000000e-11,4.58728031e-04,0.00000000e+00,7.00000000e-01
2.14000000e-11,4.53137255e-04,0.00000000e+00,7.00000000e-01
2.15000000e-11,4.47546478e-04,0.00000000e+00,7.00000000e-01
2.16000000e-11,4.41955702e-04,0.00000000e+00,7.00000000e-01
2.17000000e-11,4.36364926e-04,0.00000000e+00,7.00000000e-01
2.18000000e-11,4.30774150e-04,0.00000000e+00,7.00000000e-01
2.19000000e-11,4.25183374e-04,0.00000000e+00,7.00000000e-01
2.20000000e-11,4.19592598e-04,0.00000000e+00,7.00000000e-01
2.21000000e-11,4.14001821e-04,0.00000000e+00,7.00000000e-01
2.22000000e-11,4.08411045e-04,0.00000000e+00,7.00000000e-01
2.23000000e-11,4.03684298e-04,0.00000000e+00,7.00000000e-01
2.24000000e-11,4.00528892e-04,0.00000000e+00,7.00000000e-01
2.25000000e-11,3.97373487e-04,0.00000000e+00,7.00000000e-01
2.26000000e-11,3.94218081e-04,0.00000000e+00,7.00000000e-01
2.27000000e-11,3.91062676e-04,0.00000000e+00,7.00000000e-01
2.28000000e-11,3.87907270e-04,0.00000000e+00,7.00000000e-01
2.29000000e-11,3.84751865e-04,0.00000000e+00,7.00000000e-01
2.30000000e-11,3.81596459e-04,0.00000000e+00,7.00000000e-01
2.31000000e-11,3.78441054e-04,0.00000000e+00,7.00000000e-01
2.32000000e-11,3.75285648e-04,0.00000000e+00,7.00000000e-01
2.33000000e-11,3.72130243e-04,0.00000000e+00,7.00000000e-01
2.34000000e-11,3.68974837e-04,0.00000000e+00,7.00000000e-01
2.35000000e-11,3.65819432e-04,0.00000000e+00,7.00000000e-01
2.36000000e-11,3.62664026e-04,0.00000000e+00,7.00000000e-01
2.37000000e-11,3.59508621e-04,0.00000000e+00,7.00000000e-01
2.38000000e-11,3.56353215e-04,0.00000000e+00,7.00000000e-01
2.39000000e-11,3.53197809e-04,0.00000000e+00,7.00000000e-01
2.40000000e-11,3.50042404e-04,0.00000000e+00,7.00000000e-01
2.41000000e-11,3.46886998e-04,0.00000000e+00,7.00000000e-01
2.42000000e-11,3.43731593e-04,0.00000000e+00,7.00000000e-01
2.43000000e-11,3.40576187e-04,0.00000000e+00,7.00000000e-01
2.44000000e-11,3.37420782e-04,0.00000000e+00,7.00000000e-01
2.45000000e-11,3.34265376e-04,0.00000000e+00,7.00000000e-01
2.46000000e-11,3.31109971e-04,0.00000000e+00,7.00000000e-01
2.47000000e-11,3.27954565e-04,0.00000000e+00,7.00000000e-01
2.48000000e-11,3.24799160e-04,0.00000000e+00,7.00000000e-01
2.49000000e-11,3.21643754e-04,0.00000000e+00,7.00000000e-01
2.50000000e-11,3.18488349e-04,0.00000000e+00,7.00000000e-01
2.51000000e-11,3.15332943e-04,0.00000000e+00,7.00000000e-01
2.52000000e-11,3.12177538e-04,0.00000000e+00,7.00000000e-01
2.53000000e-11,3.09022132e-04,0.00000000e+00,7.00000000e-01
2.54000000e-11,3.05866727e-04,0.00000000e+00,7.00000000e-01
2.55000000e-11,3.02711321e-04,0.00000000e+00,7.00000000e-01
2.56000000e-11,3.01021720e-04,0.00000000e+00,7.00000000e-01
2.57000000e-11,2.99447329e-04,0.00000000e+00,7.00000000e-01
2.58000000e-11,2.97872938e-04,0.00000000e+00,7.00000000e-01
2.59000000e-11,2.96298547e-04,0.00000000e+00,7.00000000e-01
2.60000000e-11,2.94724155e-04,0.00000000e+00,7.00000000e-01
2.61000000e-11,2.93149764e-04,0.00000000e+00,7.00000000e-01
2.62000000e-11,2.91575373e-04,0.00000000e+00,7.00000000e-01
2.63000000e-11,2.90000982e-04,0.00000000e+00,7.00000000e-01
2.64000000e-11,2.88426591e-04,0.00000000e+00,7.00000000e-01
2.65000000e-11,2.86852200e-04,0.00000000e+00,7.00000000e-01
2.66000000e-11,2.85277809e-04,0.00000000e+00,7.00000000e-01
2.67000000e-11,2.83703418e-04,0.00000000e+00,7.00000000e-01
2.68000000e-11,2.82129027e-04,0.00000000e+00,7.00000000e-01
2.69000000e-11,2.80554636e-04,0.00000000e+00,7.00000000e-01
2.70000000e-11,2.78980245e-04,0.00000000e+00,7.00000000e-01
2.71000000e-11,2.77405853e-04,0.00000000e+00,7.00000000e-01
2.72000000e-11,2.75831462e-04,0.00000000e+00,7.00000000e-01
2.73000000e-11,2.74257071e-04,0.00000000e+00,7.00000000e-01
2.74000000e-11,2.72682680e-04,0.00000000e+00,7.00000000e-01
2.75000000e-11,2.71108289e-04,0.00000000e+00,7.00000000e-01
2.76000000e-11,2.69533898e-04,0.00000000e+00,7.00000000e-01
2.77000000e-11,2.67959507e-04,0.00000000e+00,7.00000000e-01
2.78000000e-11,2.66385116e-04,0.00000000e+00,7.00000000e-01
2.79000000e-11,2.64810725e-04,0.00000000e+00,7.00000000e-01
2.80000000e-11,2.63236334e-04,0.00000000e+00,7.00000000e-01
2.81000000e-11,2.61661943e-04,0.00000000e+00,7.00000000e-01
2.82000000e-11,2.60087551e-04,0.00000000e+00,7.00000000e-01
2.83000000e-11,2.58513160e-04,0.00000000e+00,7.00000000e-01
2.84000000e-11,2.56938769e-04,0.00000000e+00,7.00000000e-01
2.85000000e-11,2.55364378e-04,0.00000000e+00,7.00000000e-01
2.86000000e-11,2.53789987e-04,0.00000000e+00,7.00000000e-01
2.87000000e-11,2.52215596e-04,0.00000000e+00,7.00000000e-01
2.88000000e-11,2.50641205e-04,0.00000000e+00,7.00000000e-01
2.89000000e-11,2.49066814e-04,0.00000000e+00,7.00000000e-01
2.90000000e-11,2.47492423e-04,0.00000000e+00,7.00000000e-01
2.91000000e-11,2.45918032e-04,0.00000000e+00,7.00000000e-01
2.92000000e-11,2.44343640e-04,0.00000000e+00,7.00000000e-01
2.93000000e-11,2.42769249e-04,0.00000000e+00,7.00000000e-01
2.94000000e-11,2.41194858e-04,0.00000000e+00,7.00000000e-01
2.95000000e-11,2.39620467e-04,0.00000000e+00,7.00000000e-01
2.96000000e-11,2.38046076e-04,0.00000000e+00,7.00000000e-01
2.97000000e-11,2.36471685e-04,0.00000000e+00,7.00000000e-01
2.98000000e-11,2.34897294e-04,0.00000000e+00,7.00000000e-01
2.99000000e-11,2.33322903e-04,0.00000000e+00,7.00000000e-01
3.00000000e-11,2.31748512e-04,0.00000000e+00,7.00000000e-01
3.01000000e-11,2.30174121e-04,0.00000000e+00,7.00000000e-01
3.02000000e-11,2.28599730e-04,0.00000000e+00,7.00000000e-01
3.03000000e-11,2.27025338e-04,0.00000000e+00,7.00000000e-01
3.04000000e-11,2.25450947e-04,0.00000000e+00,7.00000000e-01
3.05000000e-11,2.23876556e-04,0.00000000e+00,7.00000000e-01
3.06000000e-11,2.22302165e-04,0.00000000e+00,7.00000000e-01
3.07000000e-11,2.20727774e-04,0.00000000e+00,7.00000000e-01
3.08000000e-11,2.19153383e-04,0.00000000e+00,7.00000000e-01
3.09000000e-11,2.17578992e-04,0.00000000e+00,7.00000000e-01
3.10000000e-11,2.16004601e-04,0.00000000e+00,7.00000000e-01
3.11000000e-11,2.14430210e-04,0.00000000e+00,7.00000000e-01
3.12000000e-11,2.12855819e-04,0.00000000e+00,7.00000000e-01
3.13000000e-11,2.11281428e-04,0.00000000e+00,7.00000000e-01
3.14000000e-11,2.09707036e-04,0.00000000e+00,7.00000000e-01
3.15000000e-11,2.08132645e-04,0.00000000e+00,7.00000000e-01
3.16000000e-11,2.06558254e-04,0.00000000e+00,7.00000000e-01
3.17000000e-11,2.04983863e-04,0.00000000e+00,7.00000000e-01
3.18000000e-11,2.03409472e-04,0.00000000e+00,7.00000000e-01
3.19000000e-11,2.01835081e-04,0.00000000e+00,7.00000000e-01
3.20000000e-11,2.00315601e-04,0.00000000e+00,7.00000000e-01
3.21000000e-11,1.99505768e-04,0.00000000e+00,7.00000000e-01
3.22000000e-11,1.98695936e-04,0.00000000e+00,7.00000000e-01
3.23000000e-11,1.97886103e-04,0.00000000e+00,7.00000000e-01
3.24000000e-11,1.97076270e-04,0.00000000e+00,7.00000000e-01
3.25000000e-11,1.96266438e-04,0.00000000e+00,7.00000000e-01
3.26000000e-11,1.95456605e-04,0.00000000e+00,7.00000000e-01
3.27000000e-11,1.94646772e-04,0.00000000e+00,7.00000000e-01
3.28000000e-11,1.93836940e-04,0.00000000e+00,7.00000000e-01
3.29000000e-11,1.93027107e-04,0.00000000e+00,7.00000000e-01
3.30000000e-11,1.92217274e-04,0.00000000e+00,7.00000000e-01
3.31000000e-11,1.91407442e-04,0.00000000e+00,7.00000000e-01
