TIME,V(OUT),V(IN1),V(IN2)
0.00000000e+00,8.99966052e-01,0.00000000e+00,0.00000000e+00
1.00000000e-17,8.99966052e-01,0.00000000e+00,0.00000000e+00
3.00000000e-17,8.99966052e-01,0.00000000e+00,0.00000000e+00
7.00000000e-17,8.99966052e-01,0.00000000e+00,0.00000000e+00
1.50000000e-16,8.99966052e-01,0.00000000e+00,0.00000000e+00
3.10000000e-16,8.99966052e-01,0.00000000e+00,0.00000000e+00
6.30000000e-16,8.99966052e-01,0.00000000e+00,0.00000000e+00
1.27000000e-15,8.99966052e-01,0.00000000e+00,0.00000000e+00
2.55000000e-15,8.99966052e-01,0.00000000e+00,0.00000000e+00
5.11000000e-15,8.99966052e-01,0.00000000e+00,0.00000000e+00
1.02300000e-14,8.99966052e-01,0.00000000e+00,0.00000000e+00
2.04700000e-14,8.99966052e-01,0.00000000e+00,0.00000000e+00
4.09500000e-14,8.99966052e-01,0.00000000e+00,0.00000000e+00
8.19100000e-14,8.99966052e-01,0.00000000e+00,0.00000000e+00
1.63830000e-13,8.99966052e-01,0.00000000e+00,0.00000000e+00
3.27670000e-13,8.99966052e-01,0.00000000e+00,0.00000000e+00
6.55350000e-13,8.99966052e-01,0.00000000e+00,0.00000000e+00
1.31071000e-12,8.99966052e-01,0.00000000e+00,0.00000000e+00
2.62143000e-12,8.99966052e-01,0.00000000e+00,0.00000000e+00
5.24287000e-12,8.99966052e-01,0.00000000e+00,0.00000000e+00
1.04857500e-11,8.99966052e-01,0.00000000e+00,0.00000000e+00
2.04857500e-11,8.99966052e-01,0.00000000e+00,0.00000000e+00
3.04857500e-11,8.99966052e-01,0.00000000e+00,0.00000000e+00
4.04857500e-11,8.99966052e-01,0.00000000e+00,0.00000000e+00
5.04857500e-11,8.99966052e-01,0.00000000e+00,0.00000000e+00
6.04857500e-11,8.99966052e-01,0.00000000e+00,0.00000000e+00
7.04857500e-11,8.99966052e-01,0.00000000e+00,0.00000000e+00
8.04857500e-11,8.99966052e-01,0.00000000e+00,0.00000000e+00
9.04857500e-11,8.99966052e-01,0.00000000e+00,0.00000000e+00
1.00000000e-10,8.99966052e-01,0.00000000e+00,0.00000000e+00
1.00062500e-10,9.02324121e-01,5.62500000e-03,0.00000000e+00
1.00125000e-10,9.04613259e-01,1.12500000e-02,0.00000000e+00
1.00250000e-10,9.09059767e-01,2.25000000e-02,0.00000000e+00
1.00500000e-10,9.17230679e-01,4.50000000e-02,0.00000000e+00
1.01000000e-10,9.31146114e-01,9.00000000e-02,0.00000000e+00
1.02000000e-10,9.51731759e-01,1.80000000e-01,0.00000000e+00
1.03000000e-10,9.64211009e-01,2.70000000e-01,0.00000000e+00
1.04000000e-10,9.65219790e-01,3.60000000e-01,0.00000000e+00
1.05000000e-10,9.41809659e-01,4.50000000e-01,0.00000000e+00
1.05900000e-10,8.81064916e-01,5.31000000e-01,0.00000000e+00
1.06644885e-10,7.98964344e-01,5.98039615e-01,0.00000000e+00
1.07315281e-10,7.01073088e-01,6.58375268e-01,0.00000000e+00
1.07985677e-10,5.80572411e-01,7.18710922e-01,0.00000000e+00
1.08656073e-10,4.39208954e-01,7.79046575e-01,0.00000000e+00
1.09326469e-10,2.87107705e-01,8.39382228e-01,0.00000000e+00
1.10000000e-10,1.56307853e-01,9.00000000e-01,0.00000000e+00
1.10052099e-10,1.47370664e-01,9.00000000e-01,4.68889748e-03
1.10094837e-10,1.40367155e-01,9.00000000e-01,8.53532581e-03
1.10180313e-10,1.27020399e-01,9.00000000e-01,1.62281825e-02
1.10351266e-10,1.03925102e-01,9.00000000e-01,3.16138958e-02
1.10522218e-10,8.51464474e-02,9.00000000e-01,4.69996091e-02
1.10693170e-10,7.00154073e-02,9.00000000e-01,6.23853224e-02
1.11035075e-10,4.79952293e-02,9.00000000e-01,9.31567490e-02
1.11718884e-10,2.42249650e-02,9.00000000e-01,1.54699602e-01
1.12402694e-10,1.47955538e-02,9.00000000e-01,2.16242455e-01
1.13086503e-10,1.10620970e-02,9.00000000e-01,2.77785309e-01
1.14454122e-10,8.69104807e-03,9.00000000e-01,4.00871015e-01
1.15821741e-10,7.90656362e-03,9.00000000e-01,5.23956722e-01
1.17189360e-10,7.53686321e-03,9.00000000e-01,6.47042428e-01
1.19924598e-10,6.91231820e-03,9.00000000e-01,8.93213841e-01
1.20000000e-10,6.91280188e-03,9.00000000e-01,9.00000000e-01
1.20075402e-10,6.01983534e-03,9.00000000e-01,9.00000000e-01
1.20226205e-10,4.68350030e-03,9.00000000e-01,9.00000000e-01
1.20527812e-10,2.67705771e-03,9.00000000e-01,9.00000000e-01
1.21131027e-10,1.04960044e-03,9.00000000e-01,9.00000000e-01
1.22337455e-10,5.43730499e-04,9.00000000e-01,9.00000000e-01
1.23543883e-10,5.78729919e-04,9.00000000e-01,9.00000000e-01
1.25956740e-10,5.15500891e-04,9.00000000e-01,9.00000000e-01
1.30782453e-10,4.40777237e-04,9.00000000e-01,9.00000000e-01
1.40433879e-10,3.30788386e-04,9.00000000e-01,9.00000000e-01
1.59736732e-10,2.23935480e-04,9.00000000e-01,9.00000000e-01
1.98342438e-10,1.29439709e-04,9.00000000e-01,9.00000000e-01
2.48342438e-10,8.71968721e-05,9.00000000e-01,9.00000000e-01
2.98342438e-10,6.18169806e-05,9.00000000e-01,9.00000000e-01
3.48342438e-10,5.19304110e-05,9.00000000e-01,9.00000000e-01
3.98342438e-10,4.02318382e-05,9.00000000e-01,9.00000000e-01
4.20000000e-10,4.02333195e-05,9.00000000e-01,9.00000000e-01
4.20062500e-10,-8.74781395e-04,9.00000000e-01,8.94375000e-01
4.20125000e-10,-1.66025066e-03,9.00000000e-01,8.88750000e-01
4.20250000e-10,-3.00036194e-03,9.00000000e-01,8.77500000e-01
4.20500000e-10,-4.66552819e-03,9.00000000e-01,8.55000000e-01
4.21000000e-10,-6.02715802e-03,9.00000000e-01,8.10000000e-01
4.22000000e-10,-6.62340546e-03,9.00000000e-01,7.20000000e-01
4.23000000e-10,-6.95521266e-03,9.00000000e-01,6.30000000e-01
4.25000000e-10,-7.88311179e-03,9.00000000e-01,4.50000000e-01
4.27000000e-10,-8.15194468e-03,9.00000000e-01,2.70000000e-01
4.28800000e-10,-8.23033620e-03,9.00000000e-01,1.08000000e-01
4.30000000e-10,-7.61322066e-03,9.00000000e-01,-1.55431223e-15
4.30162000e-10,-6.19485047e-03,9.00000000e-01,0.00000000e+00
4.30324000e-10,-5.04204441e-03,9.00000000e-01,0.00000000e+00
4.30648000e-10,-3.16300426e-03,9.00000000e-01,0.00000000e+00
4.31296000e-10,-1.17157955e-03,9.00000000e-01,0.00000000e+00
4.31944000e-10,-4.31024251e-04,9.00000000e-01,0.00000000e+00
4.33240000e-10,-1.25449143e-05,9.00000000e-01,0.00000000e+00
4.34536000e-10,5.37819325e-06,9.00000000e-01,0.00000000e+00
4.37128000e-10,7.16979183e-06,9.00000000e-01,0.00000000e+00
4.39720000e-10,6.83637351e-06,9.00000000e-01,0.00000000e+00
4.44904000e-10,6.93046621e-06,9.00000000e-01,0.00000000e+00
4.55272000e-10,6.87294714e-06,9.00000000e-01,0.00000000e+00
4.76008000e-10,6.91889795e-06,9.00000000e-01,0.00000000e+00
5.17480000e-10,6.87763406e-06,9.00000000e-01,0.00000000e+00
5.67480000e-10,6.91634785e-06,9.00000000e-01,0.00000000e+00
6.10000000e-10,6.87996159e-06,9.00000000e-01,0.00000000e+00
6.10062500e-10,5.26276238e-04,9.00000000e-01,5.62500000e-03
6.10125000e-10,1.00748642e-03,9.00000000e-01,1.12500000e-02
6.10250000e-10,1.90883855e-03,9.00000000e-01,2.25000000e-02
6.10500000e-10,3.37910900e-03,9.00000000e-01,4.50000000e-02
6.11000000e-10,5.38224183e-03,9.00000000e-01,9.00000000e-02
6.12000000e-10,7.39048542e-03,9.00000000e-01,1.80000000e-01
6.14000000e-10,8.52631205e-03,9.00000000e-01,3.60000000e-01
6.16000000e-10,7.70041601e-03,9.00000000e-01,5.40000000e-01
6.18000000e-10,7.36805107e-03,9.00000000e-01,7.20000000e-01
6.20000000e-10,6.79130408e-03,9.00000000e-01,9.00000000e-01
6.22000000e-10,1.74003870e-03,9.00000000e-01,9.00000000e-01
6.24000000e-10,7.68498400e-04,9.00000000e-01,9.00000000e-01
6.26000000e-10,4.36127690e-04,9.00000000e-01,9.00000000e-01
6.30000000e-10,4.96833891e-04,9.00000000e-01,9.00000000e-01
6.38000000e-10,3.13815958e-04,9.00000000e-01,9.00000000e-01
6.46000000e-10,3.22563405e-04,9.00000000e-01,9.00000000e-01
6.62000000e-10,1.86415793e-04,9.00000000e-01,9.00000000e-01
6.94000000e-10,1.64934246e-04,9.00000000e-01,9.00000000e-01
7.44000000e-10,6.31564130e-05,9.00000000e-01,9.00000000e-01
7.94000000e-10,8.96120643e-05,9.00000000e-01,9.00000000e-01
8.44000000e-10,2.78030199e-05,9.00000000e-01,9.00000000e-01
8.94000000e-10,6.52299212e-05,9.00000000e-01,9.00000000e-01
9.20000000e-10,1.77158206e-05,9.00000000e-01,9.00000000e-01
9.20062500e-10,-8.99032561e-04,9.00000000e-01,8.94375000e-01
9.20125000e-10,-1.68092501e-03,9.00000000e-01,8.88750000e-01
9.20250000e-10,-3.01497051e-03,9.00000000e-01,8.77500000e-01
9.20500000e-10,-4.67270641e-03,9.00000000e-01,8.55000000e-01
9.21000000e-10,-6.02854311e-03,9.00000000e-01,8.10000000e-01
9.22000000e-10,-6.62317712e-03,9.00000000e-01,7.20000000e-01
9.23000000e-10,-6.95521790e-03,9.00000000e-01,6.30000000e-01
9.25000000e-10,-7.88309642e-03,9.00000000e-01,4.50000000e-01
9.27000000e-10,-8.15194544e-03,9.00000000e-01,2.70000000e-01
9.28800000e-10,-8.23033499e-03,9.00000000e-01,1.08000000e-01
9.30000000e-10,-7.61321990e-03,9.00000000e-01,7.77156117e-15
9.30162000e-10,-6.19484981e-03,9.00000000e-01,0.00000000e+00
9.30324000e-10,-5.04204379e-03,9.00000000e-01,0.00000000e+00
9.30648000e-10,-3.16300372e-03,9.00000000e-01,0.00000000e+00
9.31296000e-10,-1.17157913e-03,9.00000000e-01,0.00000000e+00
9.31944000e-10,-4.31023950e-04,9.00000000e-01,0.00000000e+00
9.33240000e-10,-1.25447841e-05,9.00000000e-01,0.00000000e+00
9.34536000e-10,5.37823469e-06,9.00000000e-01,0.00000000e+00
9.37128000e-10,7.16979213e-06,9.00000000e-01,0.00000000e+00
9.39720000e-10,6.83637339e-06,9.00000000e-01,0.00000000e+00
9.44904000e-10,6.93046600e-06,9.00000000e-01,0.00000000e+00
9.55272000e-10,6.87294747e-06,9.00000000e-01,0.00000000e+00
9.76008000e-10,6.91889756e-06,9.00000000e-01,0.00000000e+00
1.01748000e-09,6.87763446e-06,9.00000000e-01,0.00000000e+00
1.06748000e-09,6.91634742e-06,9.00000000e-01,0.00000000e+00
1.10000000e-09,6.88031837e-06,9.00000000e-01,0.00000000e+00
1.10000098e-09,-3.37784783e-01,8.78906250e-05,0.00000000e+00
1.10000099e-09,-3.40926976e-01,8.92639160e-05,0.00000000e+00
1.10000101e-09,-3.42922328e-01,9.06372070e-05,0.00000000e+00
1.10000102e-09,-3.43180671e-01,9.18303432e-05,0.00000000e+00
1.10000103e-09,-3.42714047e-01,9.30234794e-05,0.00000000e+00
1.10000106e-09,-3.40761266e-01,9.54097517e-05,0.00000000e+00
1.10000109e-09,-3.38192182e-01,9.77960240e-05,0.00000000e+00
1.10000111e-09,-3.35511849e-01,1.00182296e-04,0.00000000e+00
1.10000117e-09,-3.30455892e-01,1.04954841e-04,0.00000000e+00
1.10000122e-09,-3.26045509e-01,1.09727386e-04,0.00000000e+00
1.10000127e-09,-3.22325895e-01,1.14499930e-04,0.00000000e+00
1.10000138e-09,-3.16565007e-01,1.24045020e-04,0.00000000e+00
1.10000148e-09,-3.12528857e-01,1.33590109e-04,0.00000000e+00
1.10000159e-09,-3.09667731e-01,1.43135198e-04,0.00000000e+00
1.10000170e-09,-3.07600888e-01,1.52680288e-04,0.00000000e+00
1.10000191e-09,-3.04881402e-01,1.71770466e-04,0.00000000e+00
1.10000233e-09,-3.02204635e-01,2.09950824e-04,0.00000000e+00
1.10000276e-09,-3.01077172e-01,2.48131181e-04,0.00000000e+00
1.10000318e-09,-3.00425516e-01,2.86311538e-04,0.00000000e+00
1.10000361e-09,-2.99992635e-01,3.24491896e-04,0.00000000e+00
1.10000445e-09,-2.99401170e-01,4.00852610e-04,0.00000000e+00
1.10000530e-09,-2.98975305e-01,4.77213325e-04,0.00000000e+00
1.10000700e-09,-2.98235703e-01,6.29934755e-04,0.00000000e+00
1.10000870e-09,-2.97537037e-01,7.82656184e-04,0.00000000e+00
1.10001209e-09,-2.96148747e-01,1.08809904e-03,0.00000000e+00
1.10001548e-09,-2.94767131e-01,1.39354190e-03,0.00000000e+00
1.10002227e-09,-2.92020166e-01,2.00442762e-03,0.00000000e+00
1.10003585e-09,-2.86592085e-01,3.22619905e-03,0.00000000e+00
1.10006300e-09,-2.75984147e-01,5.66974192e-03,0.00000000e+00
1.10011730e-09,-2.55666225e-01,1.05568277e-02,0.00000000e+00
1.10022590e-09,-2.18025492e-01,2.03309991e-02,0.00000000e+00
1.10033450e-09,-1.83663817e-01,3.01051706e-02,0.00000000e+00
1.10044310e-09,-1.51871331e-01,3.98793421e-02,0.00000000e+00
1.10066031e-09,-9.40393309e-02,5.94276851e-02,0.00000000e+00
1.10109472e-09,5.61921374e-03,9.85243710e-02,0.00000000e+00
1.10152912e-09,9.01814739e-02,1.37621057e-01,0.00000000e+00
1.10196353e-09,1.63786164e-01,1.76717743e-01,0.00000000e+00
1.10239794e-09,2.28019718e-01,2.15814429e-01,0.00000000e+00
1.10283235e-09,2.83641759e-01,2.54911115e-01,0.00000000e+00
1.10326675e-09,3.31124770e-01,2.94007801e-01,0.00000000e+00
1.10370116e-09,3.70773070e-01,3.33104486e-01,0.00000000e+00
1.10413557e-09,4.02636981e-01,3.72201172e-01,0.00000000e+00
1.10456998e-09,4.26350483e-01,4.11297858e-01,0.00000000e+00
1.10500438e-09,4.41070413e-01,4.50394544e-01,0.00000000e+00
1.10543879e-09,4.45669279e-01,4.89491230e-01,0.00000000e+00
1.10587320e-09,4.39170321e-01,5.28587916e-01,0.00000000e+00
1.10630761e-09,4.21120196e-01,5.67684602e-01,0.00000000e+00
1.10674201e-09,3.91608286e-01,6.06781288e-01,0.00000000e+00
1.10717642e-09,3.51175106e-01,6.45877974e-01,0.00000000e+00
1.10761083e-09,3.00868837e-01,6.84974660e-01,0.00000000e+00
1.10804524e-09,2.42776532e-01,7.24071346e-01,0.00000000e+00
1.10847964e-09,1.82199564e-01,7.63168032e-01,0.00000000e+00
1.10860968e-09,1.65046670e-01,7.74871215e-01,0.00000000e+00
1.10886975e-09,1.33060031e-01,7.98277582e-01,0.00000000e+00
1.10938989e-09,8.43901426e-02,8.45090317e-01,0.00000000e+00
1.10991003e-09,5.50177453e-02,8.91903051e-01,0.00000000e+00
1.11000000e-09,5.15580751e-02,9.00000000e-01,0.00000000e+00
1.11003600e-09,4.96124921e-02,9.00000000e-01,3.24032254e-03
1.11006841e-09,4.79360008e-02,9.00000000e-01,6.15661283e-03
1.11013321e-09,4.47263717e-02,9.00000000e-01,1.19891934e-02
1.11026283e-09,3.90626909e-02,9.00000000e-01,2.36543546e-02
1.11052205e-09,3.02036207e-02,9.00000000e-01,4.69846769e-02
1.11104050e-09,1.92058203e-02,9.00000000e-01,9.36453215e-02
1.11155896e-09,1.37386115e-02,9.00000000e-01,1.40305966e-01
1.11207741e-09,1.10476473e-02,9.00000000e-01,1.86966611e-01
1.11311431e-09,9.00616690e-03,9.00000000e-01,2.80287900e-01
1.11415121e-09,8.63266023e-03,9.00000000e-01,3.73609189e-01
1.11518812e-09,8.25710588e-03,9.00000000e-01,4.66930479e-01
1.11622502e-09,7.80823172e-03,9.00000000e-01,5.60251768e-01
1.11829883e-09,7.23198634e-03,9.00000000e-01,7.46894346e-01
1.12000000e-09,6.82129642e-03,9.00000000e-01,9.00000000e-01
1.12020738e-09,4.88761683e-03,9.00000000e-01,9.00000000e-01
1.12041476e-09,3.56117610e-03,9.00000000e-01,9.00000000e-01
1.12082952e-09,1.73690326e-03,9.00000000e-01,9.00000000e-01
1.12165905e-09,6.75873270e-04,9.00000000e-01,9.00000000e-01
1.12331809e-09,5.63684375e-04,9.00000000e-01,9.00000000e-01
1.12497714e-09,5.46001759e-04,9.00000000e-01,9.00000000e-01
1.12829523e-09,4.76213956e-04,9.00000000e-01,9.00000000e-01
1.13493141e-09,3.89447899e-04,9.00000000e-01,9.00000000e-01
1.14820377e-09,2.76869660e-04,9.00000000e-01,9.00000000e-01
1.17474849e-09,1.77407317e-04,9.00000000e-01,9.00000000e-01
1.22474849e-09,1.00650720e-04,9.00000000e-01,9.00000000e-01
1.27474849e-09,7.36537869e-05,9.00000000e-01,9.00000000e-01
1.32474849e-09,5.43480505e-05,9.00000000e-01,9.00000000e-01
1.37474849e-09,4.67531649e-05,9.00000000e-01,9.00000000e-01
1.42000000e-09,3.75190361e-05,9.00000000e-01,9.00000000e-01
1.42006250e-09,-8.77712815e-04,9.00000000e-01,8.94375000e-01
1.42012500e-09,-1.66275418e-03,9.00000000e-01,8.88750000e-01
1.42025000e-09,-3.00213949e-03,9.00000000e-01,8.77500000e-01
1.42050000e-09,-4.66641505e-03,9.00000000e-01,8.55000000e-01
1.42100000e-09,-6.02734636e-03,9.00000000e-01,8.10000000e-01
1.42200000e-09,-6.62339072e-03,9.00000000e-01,7.20000000e-01
1.42300000e-09,-6.95521997e-03,9.00000000e-01,6.30000000e-01
1.42500000e-09,-7.88311200e-03,9.00000000e-01,4.50000000e-01
1.42700000e-09,-8.15194551e-03,9.00000000e-01,2.70000000e-01
1.42880000e-09,-8.23033645e-03,9.00000000e-01,1.08000000e-01
1.43000000e-09,-7.61322086e-03,9.00000000e-01,7.77156117e-15
1.43016200e-09,-6.19485065e-03,9.00000000e-01,0.00000000e+00
1.43032400e-09,-5.04204458e-03,9.00000000e-01,0.00000000e+00
1.43064800e-09,-3.16300442e-03,9.00000000e-01,0.00000000e+00
1.43129600e-09,-1.17157966e-03,9.00000000e-01,0.00000000e+00
1.43194400e-09,-4.31024338e-04,9.00000000e-01,0.00000000e+00
1.43324000e-09,-1.25449524e-05,9.00000000e-01,0.00000000e+00
1.43453600e-09,5.37818112e-06,9.00000000e-01,0.00000000e+00
1.43712800e-09,7.16979174e-06,9.00000000e-01,0.00000000e+00
1.43972000e-09,6.83637354e-06,9.00000000e-01,0.00000000e+00
1.44490400e-09,6.93046627e-06,9.00000000e-01,0.00000000e+00
1.45527200e-09,6.87294704e-06,9.00000000e-01,0.00000000e+00
1.47600800e-09,6.91889806e-06,9.00000000e-01,0.00000000e+00
1.51748000e-09,6.87763394e-06,9.00000000e-01,0.00000000e+00
1.56748000e-09,6.91634797e-06,9.00000000e-01,0.00000000e+00
1.61000000e-09,6.87996146e-06,9.00000000e-01,0.00000000e+00
1.61006250e-09,5.26276238e-04,9.00000000e-01,5.62500000e-03
1.61012500e-09,1.00748642e-03,9.00000000e-01,1.12500000e-02
1.61025000e-09,1.90883855e-03,9.00000000e-01,2.25000000e-02
1.61050000e-09,3.37910900e-03,9.00000000e-01,4.50000000e-02
1.61100000e-09,5.38224183e-03,9.00000000e-01,9.00000000e-02
1.61200000e-09,7.39048542e-03,9.00000000e-01,1.80000000e-01
1.61400000e-09,8.52631205e-03,9.00000000e-01,3.60000000e-01
1.61600000e-09,7.70041601e-03,9.00000000e-01,5.40000000e-01
1.61800000e-09,7.36805107e-03,9.00000000e-01,7.20000000e-01
1.62000000e-09,6.79130408e-03,9.00000000e-01,9.00000000e-01
1.62020000e-09,4.91077980e-03,9.00000000e-01,9.00000000e-01
1.62040000e-09,3.60629648e-03,9.00000000e-01,9.00000000e-01
1.62080000e-09,1.79231361e-03,9.00000000e-01,9.00000000e-01
1.62160000e-09,6.89511096e-04,9.00000000e-01,9.00000000e-01
1.62320000e-09,5.50096803e-04,9.00000000e-01,9.00000000e-01
1.62480000e-09,5.41602354e-04,9.00000000e-01,9.00000000e-01
1.62800000e-09,4.73029628e-04,9.00000000e-01,9.00000000e-01
1.63440000e-09,3.90927955e-04,9.00000000e-01,9.00000000e-01
1.64720000e-09,2.79921571e-04,9.00000000e-01,9.00000000e-01
1.67280000e-09,1.81674826e-04,9.00000000e-01,9.00000000e-01
1.72280000e-09,1.01546901e-04,9.00000000e-01,9.00000000e-01
1.77280000e-09,7.46350353e-05,9.00000000e-01,9.00000000e-01
1.82280000e-09,5.43838261e-05,9.00000000e-01,9.00000000e-01
1.87280000e-09,4.73310181e-05,9.00000000e-01,9.00000000e-01
1.92000000e-09,3.71399069e-05,9.00000000e-01,9.00000000e-01
1.92006250e-09,-8.78129963e-04,9.00000000e-01,8.94375000e-01
1.92012500e-09,-1.66311842e-03,9.00000000e-01,8.88750000e-01
1.92025000e-09,-3.00241349e-03,9.00000000e-01,8.77500000e-01
1.92050000e-09,-4.66657571e-03,9.00000000e-01,8.55000000e-01
1.92100000e-09,-6.02741072e-03,9.00000000e-01,8.10000000e-01
1.92200000e-09,-6.62341174e-03,9.00000000e-01,7.20000000e-01
1.92300000e-09,-6.95523299e-03,9.00000000e-01,6.30000000e-01
1.92500000e-09,-7.88311575e-03,9.00000000e-01,4.50000000e-01
1.92700000e-09,-8.15194696e-03,9.00000000e-01,2.70000000e-01
1.92880000e-09,-8.23033720e-03,9.00000000e-01,1.08000000e-01
1.93000000e-09,-7.61322142e-03,9.00000000e-01,7.77156117e-15
1.93016200e-09,-6.19485115e-03,9.00000000e-01,0.00000000e+00
1.93032400e-09,-5.04204506e-03,9.00000000e-01,0.00000000e+00
1.93064800e-09,-3.16300483e-03,9.00000000e-01,0.00000000e+00
1.93129600e-09,-1.17157998e-03,9.00000000e-01,0.00000000e+00
1.93194400e-09,-4.31024573e-04,9.00000000e-01,0.00000000e+00
1.93324000e-09,-1.25450546e-05,9.00000000e-01,0.00000000e+00
1.93453600e-09,5.37814856e-06,9.00000000e-01,0.00000000e+00
1.93712800e-09,7.16979151e-06,9.00000000e-01,0.00000000e+00
1.93972000e-09,6.83637363e-06,9.00000000e-01,0.00000000e+00
1.94490400e-09,6.93046644e-06,9.00000000e-01,0.00000000e+00
1.95527200e-09,6.87294678e-06,9.00000000e-01,0.00000000e+00
1.97600800e-09,6.91889836e-06,9.00000000e-01,0.00000000e+00
2.01748000e-09,6.87763362e-06,9.00000000e-01,0.00000000e+00
2.06748000e-09,6.91634830e-06,9.00000000e-01,0.00000000e+00
2.07561000e-09,6.89904781e-06,9.00000000e-01,0.00000000e+00
2.09187000e-09,6.89631814e-06,9.00000000e-01,0.00000000e+00
2.09390250e-09,6.89719582e-06,9.00000000e-01,0.00000000e+00
2.09796750e-09,6.89769619e-06,9.00000000e-01,0.00000000e+00
2.09847563e-09,6.89763837e-06,9.00000000e-01,0.00000000e+00
2.09949188e-09,6.89756742e-06,9.00000000e-01,0.00000000e+00
2.09961891e-09,6.89756458e-06,9.00000000e-01,0.00000000e+00
2.09987297e-09,6.89755967e-06,9.00000000e-01,0.00000000e+00
2.09990473e-09,6.89755917e-06,9.00000000e-01,0.00000000e+00
2.09996824e-09,6.89755821e-06,9.00000000e-01,0.00000000e+00
2.09997618e-09,6.89755810e-06,9.00000000e-01,0.00000000e+00
2.09999206e-09,6.89755787e-06,9.00000000e-01,0.00000000e+00
2.09999405e-09,6.89755784e-06,9.00000000e-01,0.00000000e+00
2.09999802e-09,6.89755779e-06,9.00000000e-01,0.00000000e+00
2.09999851e-09,6.89755778e-06,9.00000000e-01,0.00000000e+00
2.09999950e-09,6.89755777e-06,9.00000000e-01,0.00000000e+00
2.09999963e-09,6.89755776e-06,9.00000000e-01,0.00000000e+00
