TIME,V(OUT),V(IN1),V(IN2),V(IN3)
0.00000000e+00,6.99999321e-01,0.00000000e+00,0.00000000e+00,0.00000000e+00
1.00000000e-13,7.01543878e-01,0.00000000e+00,7.00000000e-03,7.00000000e-03
2.00000000e-13,7.03733761e-01,0.00000000e+00,1.40000000e-02,1.40000000e-02
3.00000000e-13,7.06030965e-01,0.00000000e+00,2.10000000e-02,2.10000000e-02
4.00000000e-13,7.08334298e-01,0.00000000e+00,2.80000000e-02,2.80000000e-02
5.00000000e-13,7.10637630e-01,0.00000000e+00,3.50000000e-02,3.50000000e-02
6.00000000e-13,7.12581575e-01,0.00000000e+00,4.20000000e-02,4.20000000e-02
7.00000000e-13,7.14481101e-01,0.00000000e+00,4.90000000e-02,4.90000000e-02
8.00000000e-13,7.16230080e-01,0.00000000e+00,5.60000000e-02,5.60000000e-02
9.00000000e-13,7.17673402e-01,0.00000000e+00,6.30000000e-02,6.30000000e-02
1.00000000e-12,7.19116724e-01,0.00000000e+00,7.00000000e-02,7.00000000e-02
1.10000000e-12,7.20225699e-01,0.00000000e+00,7.70000000e-02,7.70000000e-02
1.20000000e-12,7.21234804e-01,0.00000000e+00,8.40000000e-02,8.40000000e-02
1.30000000e-12,7.22243908e-01,0.00000000e+00,9.10000000e-02,9.10000000e-02
1.40000000e-12,7.23253013e-01,0.00000000e+00,9.80000000e-02,9.80000000e-02
1.50000000e-12,7.24262117e-01,0.00000000e+00,1.05000000e-01,1.05000000e-01
1.60000000e-12,7.25012798e-01,0.00000000e+00,1.12000000e-01,1.12000000e-01
1.70000000e-12,7.25624327e-01,0.00000000e+00,1.19000000e-01,1.19000000e-01
1.80000000e-12,7.26235856e-01,0.00000000e+00,1.26000000e-01,1.26000000e-01
1.90000000e-12,7.26847385e-01,0.00000000e+00,1.33000000e-01,1.33000000e-01
2.00000000e-12,7.27458914e-01,0.00000000e+00,1.40000000e-01,1.40000000e-01
2.10000000e-12,7.28070442e-01,0.00000000e+00,1.47000000e-01,1.47000000e-01
2.20000000e-12,7.28681971e-01,0.00000000e+00,1.54000000e-01,1.54000000e-01
2.30000000e-12,7.29293500e-01,0.00000000e+00,1.61000000e-01,1.61000000e-01
2.40000000e-12,7.29905029e-01,0.00000000e+00,1.68000000e-01,1.68000000e-01
2.50000000e-12,7.30516558e-01,0.00000000e+00,1.75000000e-01,1.75000000e-01
2.60000000e-12,7.31074504e-01,0.00000000e+00,1.82000000e-01,1.82000000e-01
2.70000000e-12,7.31555343e-01,0.00000000e+00,1.89000000e-01,1.89000000e-01
2.80000000e-12,7.32036182e-01,0.00000000e+00,1.96000000e-01,1.96000000e-01
2.90000000e-12,7.32517021e-01,0.00000000e+00,2.03000000e-01,2.03000000e-01
3.00000000e-12,7.32997860e-01,0.00000000e+00,2.10000000e-01,2.10000000e-01
3.10000000e-12,7.33478699e-01,0.00000000e+00,2.17000000e-01,2.17000000e-01
3.20000000e-12,7.33959538e-01,0.00000000e+00,2.24000000e-01,2.24000000e-01
3.30000000e-12,7.34440377e-01,0.00000000e+00,2.31000000e-01,2.31000000e-01
3.40000000e-12,7.34921216e-01,0.00000000e+00,2.38000000e-01,2.38000000e-01
3.50000000e-12,7.35402055e-01,0.00000000e+00,2.45000000e-01,2.45000000e-01
3.60000000e-12,7.35891097e-01,0.00000000e+00,2.52000000e-01,2.52000000e-01
3.70249162e-12,7.36433372e-01,0.00000000e+00,2.59174413e-01,2.59174413e-01
3.80000000e-12,7.36969886e-01,0.00000000e+00,2.66000000e-01,2.66000000e-01
3.90000000e-12,7.37520110e-01,0.00000000e+00,2.73000000e-01,2.73000000e-01
4.00000000e-12,7.38097166e-01,0.00000000e+00,2.80000000e-01,2.80000000e-01
4.10000000e-12,7.38693238e-01,0.00000000e+00,2.87000000e-01,2.87000000e-01
4.20000000e-12,7.39300753e-01,0.00000000e+00,2.94000000e-01,2.94000000e-01
4.30000000e-12,7.39955387e-01,0.00000000e+00,3.01000000e-01,3.01000000e-01
4.40000000e-12,7.40610020e-01,0.00000000e+00,3.08000000e-01,3.08000000e-01
4.50000000e-12,7.41319866e-01,0.00000000e+00,3.15000000e-01,3.15000000e-01
4.60000000e-12,7.42043036e-01,0.00000000e+00,3.22000000e-01,3.22000000e-01
4.70000000e-12,7.42798931e-01,0.00000000e+00,3.29000000e-01,3.29000000e-01
4.80000000e-12,7.43600815e-01,0.00000000e+00,3.36000000e-01,3.36000000e-01
4.89740780e-12,7.44381913e-01,0.00000000e+00,3.42818546e-01,3.42818546e-01
5.00000000e-12,7.45296439e-01,0.00000000e+00,3.50000000e-01,3.50000000e-01
5.10000000e-12,7.46187858e-01,0.00000000e+00,3.57000000e-01,3.57000000e-01
5.20000000e-12,7.47143372e-01,0.00000000e+00,3.64000000e-01,3.64000000e-01
5.30000000e-12,7.48135556e-01,0.00000000e+00,3.71000000e-01,3.71000000e-01
5.40000000e-12,7.49155100e-01,0.00000000e+00,3.78000000e-01,3.78000000e-01
5.50000000e-12,7.50258390e-01,0.00000000e+00,3.85000000e-01,3.85000000e-01
5.60000000e-12,7.51361679e-01,0.00000000e+00,3.92000000e-01,3.92000000e-01
5.70000000e-12,7.52559822e-01,0.00000000e+00,3.99000000e-01,3.99000000e-01
5.80000000e-12,7.53773867e-01,0.00000000e+00,4.06000000e-01,4.06000000e-01
5.90000000e-12,7.54974979e-01,0.00000000e+00,4.13000000e-01,4.13000000e-01
6.00000000e-12,7.56161307e-01,0.00000000e+00,4.20000000e-01,4.20000000e-01
6.10000000e-12,7.57282348e-01,0.00000000e+00,4.27000000e-01,4.27000000e-01
6.20000000e-12,7.57618149e-01,0.00000000e+00,4.34000000e-01,4.34000000e-01
6.30000000e-12,7.57953951e-01,0.00000000e+00,4.41000000e-01,4.41000000e-01
6.40000000e-12,7.57120288e-01,0.00000000e+00,4.48000000e-01,4.48000000e-01
6.50000000e-12,7.55753634e-01,0.00000000e+00,4.55000000e-01,4.55000000e-01
6.60000000e-12,7.53540265e-01,0.00000000e+00,4.62000000e-01,4.62000000e-01
6.70000000e-12,7.50743539e-01,0.00000000e+00,4.69000000e-01,4.69000000e-01
6.80000000e-12,7.47470754e-01,0.00000000e+00,4.76000000e-01,4.76000000e-01
6.90000000e-12,7.43716604e-01,0.00000000e+00,4.83000000e-01,4.83000000e-01
7.00000000e-12,7.39677462e-01,0.00000000e+00,4.90000000e-01,4.90000000e-01
7.10000000e-12,7.35215046e-01,0.00000000e+00,4.97000000e-01,4.97000000e-01
7.20000000e-12,7.30539480e-01,0.00000000e+00,5.04000000e-01,5.04000000e-01
7.30000000e-12,7.25383966e-01,0.00000000e+00,5.11000000e-01,5.11000000e-01
7.40000000e-12,7.20059801e-01,0.00000000e+00,5.18000000e-01,5.18000000e-01
7.50000000e-12,7.14111316e-01,0.00000000e+00,5.25000000e-01,5.25000000e-01
7.60000000e-12,7.08056805e-01,0.00000000e+00,5.32000000e-01,5.32000000e-01
7.70000000e-12,7.01208515e-01,0.00000000e+00,5.39000000e-01,5.39000000e-01
7.79770166e-12,6.94517622e-01,0.00000000e+00,5.45839116e-01,5.45839116e-01
7.90000000e-12,6.86536994e-01,0.00000000e+00,5.53000000e-01,5.53000000e-01
8.00000000e-12,6.78735666e-01,0.00000000e+00,5.60000000e-01,5.60000000e-01
8.10000000e-12,6.70045216e-01,0.00000000e+00,5.67000000e-01,5.67000000e-01
8.20000000e-12,6.61285921e-01,0.00000000e+00,5.74000000e-01,5.74000000e-01
8.30000000e-12,6.51733935e-01,0.00000000e+00,5.81000000e-01,5.81000000e-01
8.40000000e-12,6.42023356e-01,0.00000000e+00,5.88000000e-01,5.88000000e-01
8.50000000e-12,6.31607821e-01,0.00000000e+00,5.95000000e-01,5.95000000e-01
8.60000000e-12,6.20942582e-01,0.00000000e+00,6.02000000e-01,6.02000000e-01
8.70000000e-12,6.09652282e-01,0.00000000e+00,6.09000000e-01,6.09000000e-01
8.80000000e-12,5.98015827e-01,0.00000000e+00,6.16000000e-01,6.16000000e-01
8.90000000e-12,5.85831815e-01,0.00000000e+00,6.23000000e-01,6.23000000e-01
9.00000000e-12,5.73197510e-01,0.00000000e+00,6.30000000e-01,6.30000000e-01
9.10000000e-12,5.60095405e-01,0.00000000e+00,6.37000000e-01,6.37000000e-01
9.20000000e-12,5.46430452e-01,0.00000000e+00,6.44000000e-01,6.44000000e-01
9.30000000e-12,5.32383926e-01,0.00000000e+00,6.51000000e-01,6.51000000e-01
9.40000000e-12,5.17656213e-01,0.00000000e+00,6.58000000e-01,6.58000000e-01
9.50000000e-12,5.02644205e-01,0.00000000e+00,6.65000000e-01,6.65000000e-01
9.60000000e-12,4.86840388e-01,0.00000000e+00,6.72000000e-01,6.72000000e-01
9.70000000e-12,4.70863288e-01,0.00000000e+00,6.79000000e-01,6.79000000e-01
9.80000000e-12,4.54036190e-01,0.00000000e+00,6.86000000e-01,6.86000000e-01
9.90000000e-12,4.37159225e-01,0.00000000e+00,6.93000000e-01,6.93000000e-01
1.00000000e-11,4.19662683e-01,0.00000000e+00,7.00000000e-01,7.00000000e-01
1.00994932e-11,4.00009968e-01,0.00000000e+00,7.00000000e-01,7.00000000e-01
1.01976234e-11,3.79519178e-01,0.00000000e+00,7.00000000e-01,7.00000000e-01
1.03000000e-11,3.57528234e-01,0.00000000e+00,7.00000000e-01,7.00000000e-01
1.04000000e-11,3.36111555e-01,0.00000000e+00,7.00000000e-01,7.00000000e-01
1.05000000e-11,3.15673730e-01,0.00000000e+00,7.00000000e-01,7.00000000e-01
1.06000000e-11,2.95235905e-01,0.00000000e+00,7.00000000e-01,7.00000000e-01
1.07000000e-11,2.74798080e-01,0.00000000e+00,7.00000000e-01,7.00000000e-01
1.08000000e-11,2.54766386e-01,0.00000000e+00,7.00000000e-01,7.00000000e-01
1.09000000e-11,2.37315906e-01,0.00000000e+00,7.00000000e-01,7.00000000e-01
1.10000000e-11,2.19865426e-01,0.00000000e+00,7.00000000e-01,7.00000000e-01
1.11000000e-11,2.02414946e-01,0.00000000e+00,7.00000000e-01,7.00000000e-01
1.12000000e-11,1.87623579e-01,0.00000000e+00,7.00000000e-01,7.00000000e-01
1.13000000e-11,1.73330561e-01,0.00000000e+00,7.00000000e-01,7.00000000e-01
1.14000000e-11,1.59037542e-01,0.00000000e+00,7.00000000e-01,7.00000000e-01
1.15000000e-11,1.47236322e-01,0.00000000e+00,7.00000000e-01,7.00000000e-01
1.16000000e-11,1.35595053e-01,0.00000000e+00,7.00000000e-01,7.00000000e-01
1.16962806e-11,1.24386769e-01,0.00000000e+00,7.00000000e-01,7.00000000e-01
1.18000000e-11,1.14731172e-01,0.00000000e+00,7.00000000e-01,7.00000000e-01
1.19000000e-11,1.05421827e-01,0.00000000e+00,7.00000000e-01,7.00000000e-01
1.20000000e-11,9.63803721e-02,0.00000000e+00,7.00000000e-01,7.00000000e-01
1.21000000e-11,8.90597112e-02,0.00000000e+00,7.00000000e-01,7.00000000e-01
1.22000000e-11,8.17390502e-02,0.00000000e+00,7.00000000e-01,7.00000000e-01
1.23000000e-11,7.47985420e-02,0.00000000e+00,7.00000000e-01,7.00000000e-01
1.24000000e-11,6.91149182e-02,0.00000000e+00,7.00000000e-01,7.00000000e-01
1.25000000e-11,6.34312943e-02,0.00000000e+00,7.00000000e-01,7.00000000e-01
1.26000000e-11,5.81787114e-02,0.00000000e+00,7.00000000e-01,7.00000000e-01
1.27000000e-11,5.38023301e-02,0.00000000e+00,7.00000000e-01,7.00000000e-01
1.28000000e-11,4.94259487e-02,0.00000000e+00,7.00000000e-01,7.00000000e-01
1.29000000e-11,4.54858866e-02,0.00000000e+00,7.00000000e-01,7.00000000e-01
1.30000000e-11,4.21307420e-02,0.00000000e+00,7.00000000e-01,7.00000000e-01
1.31000000e-11,3.87755973e-02,0.00000000e+00,7.00000000e-01,7.00000000e-01
1.32000000e-11,3.58329792e-02,0.00000000e+00,7.00000000e-01,7.00000000e-01
1.33000000e-11,3.32639604e-02,0.00000000e+00,7.00000000e-01,7.00000000e-01
1.34000000e-11,3.06949415e-02,0.00000000e+00,7.00000000e-01,7.00000000e-01
1.35000000e-11,2.84989986e-02,0.00000000e+00,7.00000000e-01,7.00000000e-01
1.36000000e-11,2.65295181e-02,0.00000000e+00,7.00000000e-01,7.00000000e-01
1.37000000e-11,2.45600377e-02,0.00000000e+00,7.00000000e-01,7.00000000e-01
1.38000000e-11,2.30287839e-02,0.00000000e+00,7.00000000e-01,7.00000000e-01
1.39000000e-11,2.16681334e-02,0.00000000e+00,7.00000000e-01,7.00000000e-01
1.40000000e-11,2.03074830e-02,0.00000000e+00,7.00000000e-01,7.00000000e-01
1.41000000e-11,1.89468325e-02,0.00000000e+00,7.00000000e-01,7.00000000e-01
1.42000000e-11,1.75861821e-02,0.00000000e+00,7.00000000e-01,7.00000000e-01
1.43000000e-11,1.62255316e-02,0.00000000e+00,7.00000000e-01,7.00000000e-01
1.44000000e-11,1.54841935e-02,0.00000000e+00,7.00000000e-01,7.00000000e-01
1.45000000e-11,1.48005270e-02,0.00000000e+00,7.00000000e-01,7.00000000e-01
1.46000000e-11,1.41168606e-02,0.00000000e+00,7.00000000e-01,7.00000000e-01
1.47000000e-11,1.34331941e-02,0.00000000e+00,7.00000000e-01,7.00000000e-01
1.48000000e-11,1.27495276e-02,0.00000000e+00,7.00000000e-01,7.00000000e-01
1.49000000e-11,1.20658612e-02,0.00000000e+00,7.00000000e-01,7.00000000e-01
1.50000000e-11,1.13821947e-02,0.00000000e+00,7.00000000e-01,7.00000000e-01
1.51000000e-11,1.06985283e-02,0.00000000e+00,7.00000000e-01,7.00000000e-01
1.52000000e-11,1.00148618e-02,0.00000000e+00,7.00000000e-01,7.00000000e-01
1.53000000e-11,9.33119533e-03,0.00000000e+00,7.00000000e-01,7.00000000e-01
1.54000000e-11,8.64752886e-03,0.00000000e+00,7.00000000e-01,7.00000000e-01
1.55000000e-11,8.09339313e-03,0.00000000e+00,7.00000000e-01,7.00000000e-01
1.56000000e-11,7.83460865e-03,0.00000000e+00,7.00000000e-01,7.00000000e-01
1.57000000e-11,7.57582417e-03,0.00000000e+00,7.00000000e-01,7.00000000e-01
1.58000000e-11,7.31703969e-03,0.00000000e+00,7.00000000e-01,7.00000000e-01
1.59000000e-11,7.05825521e-03,0.00000000e+00,7.00000000e-01,7.00000000e-01
1.60000000e-11,6.79947073e-03,0.00000000e+00,7.00000000e-01,7.00000000e-01
1.61000000e-11,6.54068626e-03,0.00000000e+00,7.00000000e-01,7.00000000e-01
1.62000000e-11,6.28190178e-03,0.00000000e+00,7.00000000e-01,7.00000000e-01
1.63000000e-11,6.02311730e-03,0.00000000e+00,7.00000000e-01,7.00000000e-01
1.64000000e-11,5.76433282e-03,0.00000000e+00,7.00000000e-01,7.00000000e-01
1.65000000e-11,5.50554834e-03,0.00000000e+00,7.00000000e-01,7.00000000e-01
1.66000000e-11,5.24676386e-03,0.00000000e+00,7.00000000e-01,7.00000000e-01
1.67000000e-11,5.08085703e-03,0.00000000e+00,7.00000000e-01,7.00000000e-01
1.68000000e-11,4.95572584e-03,0.00000000e+00,7.00000000e-01,7.00000000e-01
1.69000000e-11,4.83059465e-03,0.00000000e+00,7.00000000e-01,7.00000000e-01
1.70000000e-11,4.70546345e-03,0.00000000e+00,7.00000000e-01,7.00000000e-01
1.71000000e-11,4.58033226e-03,0.00000000e+00,7.00000000e-01,7.00000000e-01
1.72000000e-11,4.45520107e-03,0.00000000e+00,7.00000000e-01,7.00000000e-01
1.73000000e-11,4.33006988e-03,0.00000000e+00,7.00000000e-01,7.00000000e-01
1.74000000e-11,4.20493868e-03,0.00000000e+00,7.00000000e-01,7.00000000e-01
1.75000000e-11,4.07980749e-03,0.00000000e+00,7.00000000e-01,7.00000000e-01
1.76000000e-11,3.95467630e-03,0.00000000e+00,7.00000000e-01,7.00000000e-01
1.77000000e-11,3.82954511e-03,0.00000000e+00,7.00000000e-01,7.00000000e-01
1.78000000e-11,3.70889130e-03,0.00000000e+00,7.00000000e-01,7.00000000e-01
1.79000000e-11,3.63645588e-03,0.00000000e+00,7.00000000e-01,7.00000000e-01
1.80000000e-11,3.56402046e-03,0.00000000e+00,7.00000000e-01,7.00000000e-01
1.81000000e-11,3.49158503e-03,0.00000000e+00,7.00000000e-01,7.00000000e-01
1.82000000e-11,3.41914961e-03,0.00000000e+00,7.00000000e-01,7.00000000e-01
1.83000000e-11,3.34671419e-03,0.00000000e+00,7.00000000e-01,7.00000000e-01
1.84000000e-11,3.27427876e-03,0.00000000e+00,7.00000000e-01,7.00000000e-01
1.85000000e-11,3.20184334e-03,0.00000000e+00,7.00000000e-01,7.00000000e-01
1.86000000e-11,3.12940792e-03,0.00000000e+00,7.00000000e-01,7.00000000e-01
1.87000000e-11,3.05697249e-03,0.00000000e+00,7.00000000e-01,7.00000000e-01
1.88000000e-11,2.98453707e-03,0.00000000e+00,7.00000000e-01,7.00000000e-01
1.89000000e-11,2.91210165e-03,0.00000000e+00,7.00000000e-01,7.00000000e-01
1.90000000e-11,2.85458210e-03,0.00000000e+00,7.00000000e-01,7.00000000e-01
1.91000000e-11,2.81354728e-03,0.00000000e+00,7.00000000e-01,7.00000000e-01
1.92000000e-11,2.77251245e-03,0.00000000e+00,7.00000000e-01,7.00000000e-01
1.93000000e-11,2.73147763e-03,0.00000000e+00,7.00000000e-01,7.00000000e-01
1.94000000e-11,2.69044281e-03,0.00000000e+00,7.00000000e-01,7.00000000e-01
1.95000000e-11,2.64940799e-03,0.00000000e+00,7.00000000e-01,7.00000000e-01
1.96000000e-11,2.60837316e-03,0.00000000e+00,7.00000000e-01,7.00000000e-01
1.97000000e-11,2.56733834e-03,0.00000000e+00,7.00000000e-01,7.00000000e-01
1.98000000e-11,2.52630352e-03,0.00000000e+00,7.00000000e-01,7.00000000e-01
1.99000000e-11,2.48526870e-03,0.00000000e+00,7.00000000e-01,7.00000000e-01
2.00000000e-11,2.44423387e-03,0.00000000e+00,7.00000000e-01,7.00000000e-01
2.01000000e-11,2.40319905e-03,0.00000000e+00,7.00000000e-01,7.00000000e-01
2.02000000e-11,2.36216423e-03,0.00000000e+00,7.00000000e-01,7.00000000e-01
2.03000000e-11,2.32112941e-03,0.00000000e+00,7.00000000e-01,7.00000000e-01
2.04000000e-11,2.28009459e-03,0.00000000e+00,7.00000000e-01,7.00000000e-01
2.05000000e-11,2.23905976e-03,0.00000000e+00,7.00000000e-01,7.00000000e-01
2.06000000e-11,2.19802494e-03,0.00000000e+00,7.00000000e-01,7.00000000e-01
2.07000000e-11,2.15699012e-03,0.00000000e+00,7.00000000e-01,7.00000000e-01
2.08000000e-11,2.11595530e-03,0.00000000e+00,7.00000000e-01,7.00000000e-01
2.09000000e-11,2.07492047e-03,0.00000000e+00,7.00000000e-01,7.00000000e-01
2.10000000e-11,2.03388565e-03,0.00000000e+00,7.00000000e-01,7.00000000e-01
2.11000000e-11,1.99285083e-03,0.00000000e+00,7.00000000e-01,7.00000000e-01
2.12000000e-11,1.95181601e-03,0.00000000e+00,7.00000000e-01,7.00000000e-01
2.13000000e-11,1.91680757e-03,0.00000000e+00,7.00000000e-01,7.00000000e-01
2.14000000e-11,1.89939426e-03,0.00000000e+00,7.00000000e-01,7.00000000e-01
2.15000000e-11,1.88198096e-03,0.00000000e+00,7.00000000e-01,7.00000000e-01
2.16000000e-11,1.86456766e-03,0.00000000e+00,7.00000000e-01,7.00000000e-01
2.17000000e-11,1.84715435e-03,0.00000000e+00,7.00000000e-01,7.00000000e-01
2.18000000e-11,1.82974105e-03,0.00000000e+00,7.00000000e-01,7.00000000e-01
2.19000000e-11,1.81232774e-03,0.00000000e+00,7.00000000e-01,7.00000000e-01
2.20000000e-11,1.79491444e-03,0.00000000e+00,7.00000000e-01,7.00000000e-01
2.21000000e-11,1.77750113e-03,0.00000000e+00,7.00000000e-01,7.00000000e-01
2.22000000e-11,1.76008783e-03,0.00000000e+00,7.00000000e-01,7.00000000e-01
2.23000000e-11,1.74267453e-03,0.00000000e+00,7.00000000e-01,7.00000000e-01
2.24000000e-11,1.72526122e-03,0.00000000e+00,7.00000000e-01,7.00000000e-01
2.25000000e-11,1.70784792e-03,0.00000000e+00,7.00000000e-01,7.00000000e-01
2.26000000e-11,1.69043461e-03,0.00000000e+00,7.00000000e-01,7.00000000e-01
2.27000000e-11,1.67302131e-03,0.00000000e+00,7.00000000e-01,7.00000000e-01
2.28000000e-11,1.65560801e-03,0.00000000e+00,7.00000000e-01,7.00000000e-01
2.29000000e-11,1.63819470e-03,0.00000000e+00,7.00000000e-01,7.00000000e-01
2.30000000e-11,1.62078140e-03,0.00000000e+00,7.00000000e-01,7.00000000e-01
2.31000000e-11,1.60336809e-03,0.00000000e+00,7.00000000e-01,7.00000000e-01
2.32000000e-11,1.58595479e-03,0.00000000e+00,7.00000000e-01,7.00000000e-01
2.33000000e-11,1.56854148e-03,0.00000000e+00,7.00000000e-01,7.00000000e-01
2.34000000e-11,1.55112818e-03,0.00000000e+00,7.00000000e-01,7.00000000e-01
2.35000000e-11,1.53371488e-03,0.00000000e+00,7.00000000e-01,7.00000000e-01
2.36000000e-11,1.51630157e-03,0.00000000e+00,7.00000000e-01,7.00000000e-01
2.37000000e-11,1.49888827e-03,0.00000000e+00,7.00000000e-01,7.00000000e-01
2.38000000e-11,1.48147496e-03,0.00000000e+00,7.00000000e-01,7.00000000e-01
2.39000000e-11,1.46406166e-03,0.00000000e+00,7.00000000e-01,7.00000000e-01
2.40000000e-11,1.44664835e-03,0.00000000e+00,7.00000000e-01,7.00000000e-01
2.41000000e-11,1.42923505e-03,0.00000000e+00,7.00000000e-01,7.00000000e-01
2.42000000e-11,1.41182175e-03,0.00000000e+00,7.00000000e-01,7.00000000e-01
2.43000000e-11,1.39440844e-03,0.00000000e+00,7.00000000e-01,7.00000000e-01
2.44000000e-11,1.37699514e-03,0.00000000e+00,7.00000000e-01,7.00000000e-01
2.45000000e-11,1.35958183e-03,0.00000000e+00,7.00000000e-01,7.00000000e-01
2.46000000e-11,1.34216853e-03,0.00000000e+00,7.00000000e-01,7.00000000e-01
2.47000000e-11,1.32475522e-03,0.00000000e+00,7.00000000e-01,7.00000000e-01
2.48000000e-11,1.30734192e-03,0.00000000e+00,7.00000000e-01,7.00000000e-01
2.49000000e-11,1.28992862e-03,0.00000000e+00,7.00000000e-01,7.00000000e-01
2.50000000e-11,1.27251531e-03,0.00000000e+00,7.00000000e-01,7.00000000e-01
2.51000000e-11,1.25510201e-03,0.00000000e+00,7.00000000e-01,7.00000000e-01
2.52000000e-11,1.23768870e-03,0.00000000e+00,7.00000000e-01,7.00000000e-01
2.53000000e-11,1.22027540e-03,0.00000000e+00,7.00000000e-01,7.00000000e-01
2.54000000e-11,1.20286209e-03,0.00000000e+00,7.00000000e-01,7.00000000e-01
2.55000000e-11,1.18544879e-03,0.00000000e+00,7.00000000e-01,7.00000000e-01
2.56000000e-11,1.16803549e-03,0.00000000e+00,7.00000000e-01,7.00000000e-01
2.57000000e-11,1.15062218e-03,0.00000000e+00,7.00000000e-01,7.00000000e-01
2.58000000e-11,1.13320888e-03,0.00000000e+00,7.00000000e-01,7.00000000e-01
2.59000000e-11,1.11579557e-03,0.00000000e+00,7.00000000e-01,7.00000000e-01
2.60000000e-11,1.10680750e-03,0.00000000e+00,7.00000000e-01,7.00000000e-01
2.61000000e-11,1.09972771e-03,0.00000000e+00,7.00000000e-01,7.00000000e-01
2.62000000e-11,1.09264792e-03,0.00000000e+00,7.00000000e-01,7.00000000e-01
2.63000000e-11,1.08556814e-03,0.00000000e+00,7.00000000e-01,7.00000000e-01
2.64000000e-11,1.07848835e-03,0.00000000e+00,7.00000000e-01,7.00000000e-01
2.65000000e-11,1.07140856e-03,0.00000000e+00,7.00000000e-01,7.00000000e-01
