TIME,V(OUT),V(IN1),V(IN2),V(IN3)
0.00000000e+00,6.99999352e-01,0.00000000e+00,0.00000000e+00,0.00000000e+00
1.00000000e-13,7.01513304e-01,0.00000000e+00,7.00000000e-03,0.00000000e+00
2.00000000e-13,7.03180915e-01,0.00000000e+00,1.40000000e-02,0.00000000e+00
3.00000000e-13,7.04797549e-01,0.00000000e+00,2.10000000e-02,0.00000000e+00
4.00000000e-13,7.06331319e-01,0.00000000e+00,2.80000000e-02,0.00000000e+00
5.00000000e-13,7.07865088e-01,0.00000000e+00,3.50000000e-02,0.00000000e+00
6.00000000e-13,7.09103730e-01,0.00000000e+00,4.20000000e-02,0.00000000e+00
7.00000000e-13,7.10305896e-01,0.00000000e+00,4.90000000e-02,0.00000000e+00
8.00000000e-13,7.11372754e-01,0.00000000e+00,5.60000000e-02,0.00000000e+00
9.00000000e-13,7.12164896e-01,0.00000000e+00,6.30000000e-02,0.00000000e+00
1.00000000e-12,7.12957038e-01,0.00000000e+00,7.00000000e-02,0.00000000e+00
1.10000000e-12,7.13749180e-01,0.00000000e+00,7.70000000e-02,0.00000000e+00
1.20000000e-12,7.14541322e-01,0.00000000e+00,8.40000000e-02,0.00000000e+00
1.30000000e-12,7.15259887e-01,0.00000000e+00,9.10000000e-02,0.00000000e+00
1.40000000e-12,7.15701661e-01,0.00000000e+00,9.80000000e-02,0.00000000e+00
1.50000000e-12,7.16143436e-01,0.00000000e+00,1.05000000e-01,0.00000000e+00
1.60000000e-12,7.16585211e-01,0.00000000e+00,1.12000000e-01,0.00000000e+00
1.70000000e-12,7.17026986e-01,0.00000000e+00,1.19000000e-01,0.00000000e+00
1.80000000e-12,7.17452839e-01,0.00000000e+00,1.26000000e-01,0.00000000e+00
1.90000000e-12,7.17717709e-01,0.00000000e+00,1.33000000e-01,0.00000000e+00
2.00000000e-12,7.17982578e-01,0.00000000e+00,1.40000000e-01,0.00000000e+00
2.10000000e-12,7.18247448e-01,0.00000000e+00,1.47000000e-01,0.00000000e+00
2.20000000e-12,7.18512318e-01,0.00000000e+00,1.54000000e-01,0.00000000e+00
2.30300000e-12,7.18785134e-01,0.00000000e+00,1.61210000e-01,0.00000000e+00
2.40000000e-12,7.18941350e-01,0.00000000e+00,1.68000000e-01,0.00000000e+00
2.50000000e-12,7.19102397e-01,0.00000000e+00,1.75000000e-01,0.00000000e+00
2.60000000e-12,7.19263445e-01,0.00000000e+00,1.82000000e-01,0.00000000e+00
2.70000000e-12,7.19424493e-01,0.00000000e+00,1.89000000e-01,0.00000000e+00
2.80000000e-12,7.19585540e-01,0.00000000e+00,1.96000000e-01,0.00000000e+00
2.90000000e-12,7.19746588e-01,0.00000000e+00,2.03000000e-01,0.00000000e+00
3.00000000e-12,7.19907636e-01,0.00000000e+00,2.10000000e-01,0.00000000e+00
3.10000000e-12,7.20068683e-01,0.00000000e+00,2.17000000e-01,0.00000000e+00
3.20000000e-12,7.20229731e-01,0.00000000e+00,2.24000000e-01,0.00000000e+00
3.30000000e-12,7.20390779e-01,0.00000000e+00,2.31000000e-01,0.00000000e+00
3.40000000e-12,7.20514375e-01,0.00000000e+00,2.38000000e-01,0.00000000e+00
3.50000000e-12,7.20624119e-01,0.00000000e+00,2.45000000e-01,0.00000000e+00
3.60000000e-12,7.20733864e-01,0.00000000e+00,2.52000000e-01,0.00000000e+00
3.70000000e-12,7.20843608e-01,0.00000000e+00,2.59000000e-01,0.00000000e+00
3.80000000e-12,7.20953353e-01,0.00000000e+00,2.66000000e-01,0.00000000e+00
3.90000000e-12,7.21063097e-01,0.00000000e+00,2.73000000e-01,0.00000000e+00
4.00000000e-12,7.21172842e-01,0.00000000e+00,2.80000000e-01,0.00000000e+00
4.10000000e-12,7.21282586e-01,0.00000000e+00,2.87000000e-01,0.00000000e+00
4.20000000e-12,7.21392330e-01,0.00000000e+00,2.94000000e-01,0.00000000e+00
4.30000000e-12,7.21502075e-01,0.00000000e+00,3.01000000e-01,0.00000000e+00
4.40000000e-12,7.21592038e-01,0.00000000e+00,3.08000000e-01,0.00000000e+00
4.50000000e-12,7.21661413e-01,0.00000000e+00,3.15000000e-01,0.00000000e+00
4.60000000e-12,7.21730788e-01,0.00000000e+00,3.22000000e-01,0.00000000e+00
4.70000000e-12,7.21800163e-01,0.00000000e+00,3.29000000e-01,0.00000000e+00
4.80000000e-12,7.21869538e-01,0.00000000e+00,3.36000000e-01,0.00000000e+00
4.90000000e-12,7.21938913e-01,0.00000000e+00,3.43000000e-01,0.00000000e+00
5.00000000e-12,7.22008287e-01,0.00000000e+00,3.50000000e-01,0.00000000e+00
5.10000000e-12,7.22077662e-01,0.00000000e+00,3.57000000e-01,0.00000000e+00
5.20000000e-12,7.22147037e-01,0.00000000e+00,3.64000000e-01,0.00000000e+00
5.30000000e-12,7.22216412e-01,0.00000000e+00,3.71000000e-01,0.00000000e+00
5.40000000e-12,7.22285787e-01,0.00000000e+00,3.78000000e-01,0.00000000e+00
5.50000000e-12,7.22355162e-01,0.00000000e+00,3.85000000e-01,0.00000000e+00
5.60000000e-12,7.22424537e-01,0.00000000e+00,3.92000000e-01,0.00000000e+00
5.70000000e-12,7.22493912e-01,0.00000000e+00,3.99000000e-01,0.00000000e+00
5.80000000e-12,7.22563287e-01,0.00000000e+00,4.06000000e-01,0.00000000e+00
5.90000000e-12,7.22632661e-01,0.00000000e+00,4.13000000e-01,0.00000000e+00
6.00000000e-12,7.22702036e-01,0.00000000e+00,4.20000000e-01,0.00000000e+00
6.10000000e-12,7.22771411e-01,0.00000000e+00,4.27000000e-01,0.00000000e+00
6.20000000e-12,7.22840786e-01,0.00000000e+00,4.34000000e-01,0.00000000e+00
6.30000000e-12,7.22910161e-01,0.00000000e+00,4.41000000e-01,0.00000000e+00
6.39900000e-12,7.22978842e-01,0.00000000e+00,4.47930000e-01,0.00000000e+00
6.50000000e-12,7.22818931e-01,0.00000000e+00,4.55000000e-01,0.00000000e+00
6.60000000e-12,7.22660604e-01,0.00000000e+00,4.62000000e-01,0.00000000e+00
6.70000000e-12,7.22502277e-01,0.00000000e+00,4.69000000e-01,0.00000000e+00
6.80000000e-12,7.22343949e-01,0.00000000e+00,4.76000000e-01,0.00000000e+00
6.90000000e-12,7.22185622e-01,0.00000000e+00,4.83000000e-01,0.00000000e+00
7.00000000e-12,7.22027294e-01,0.00000000e+00,4.90000000e-01,0.00000000e+00
7.10000000e-12,7.21868967e-01,0.00000000e+00,4.97000000e-01,0.00000000e+00
7.20000000e-12,7.21710639e-01,0.00000000e+00,5.04000000e-01,0.00000000e+00
7.30000000e-12,7.21552312e-01,0.00000000e+00,5.11000000e-01,0.00000000e+00
7.40000000e-12,7.21393985e-01,0.00000000e+00,5.18000000e-01,0.00000000e+00
7.50000000e-12,7.21235657e-01,0.00000000e+00,5.25000000e-01,0.00000000e+00
7.60000000e-12,7.21077330e-01,0.00000000e+00,5.32000000e-01,0.00000000e+00
7.70000000e-12,7.20919002e-01,0.00000000e+00,5.39000000e-01,0.00000000e+00
7.80000000e-12,7.20760675e-01,0.00000000e+00,5.46000000e-01,0.00000000e+00
7.90000000e-12,7.20602347e-01,0.00000000e+00,5.53000000e-01,0.00000000e+00
8.00000000e-12,7.20444020e-01,0.00000000e+00,5.60000000e-01,0.00000000e+00
8.10000000e-12,7.20285692e-01,0.00000000e+00,5.67000000e-01,0.00000000e+00
8.20000000e-12,7.20127365e-01,0.00000000e+00,5.74000000e-01,0.00000000e+00
8.30000000e-12,7.19969038e-01,0.00000000e+00,5.81000000e-01,0.00000000e+00
8.40000000e-12,7.19810710e-01,0.00000000e+00,5.88000000e-01,0.00000000e+00
8.50000000e-12,7.19589219e-01,0.00000000e+00,5.95000000e-01,0.00000000e+00
8.60000000e-12,7.19311714e-01,0.00000000e+00,6.02000000e-01,0.00000000e+00
8.70000000e-12,7.19034210e-01,0.00000000e+00,6.09000000e-01,0.00000000e+00
8.80000000e-12,7.18756706e-01,0.00000000e+00,6.16000000e-01,0.00000000e+00
8.90000000e-12,7.18479201e-01,0.00000000e+00,6.23000000e-01,0.00000000e+00
9.00000000e-12,7.18201697e-01,0.00000000e+00,6.30000000e-01,0.00000000e+00
9.10000000e-12,7.17924192e-01,0.00000000e+00,6.37000000e-01,0.00000000e+00
9.20000000e-12,7.17646688e-01,0.00000000e+00,6.44000000e-01,0.00000000e+00
9.30000000e-12,7.17369183e-01,0.00000000e+00,6.51000000e-01,0.00000000e+00
9.40000000e-12,7.17091679e-01,0.00000000e+00,6.58000000e-01,0.00000000e+00
9.50000000e-12,7.16814174e-01,0.00000000e+00,6.65000000e-01,0.00000000e+00
9.60000000e-12,7.16536670e-01,0.00000000e+00,6.72000000e-01,0.00000000e+00
9.70000000e-12,7.16259166e-01,0.00000000e+00,6.79000000e-01,0.00000000e+00
9.80000000e-12,7.15981661e-01,0.00000000e+00,6.86000000e-01,0.00000000e+00
9.90000000e-12,7.15704157e-01,0.00000000e+00,6.93000000e-01,0.00000000e+00
1.00000000e-11,7.15426652e-01,0.00000000e+00,7.00000000e-01,0.00000000e+00
1.01000000e-11,7.13864047e-01,0.00000000e+00,7.00000000e-01,0.00000000e+00
1.02000000e-11,7.12345217e-01,0.00000000e+00,7.00000000e-01,0.00000000e+00
1.03000000e-11,7.10946355e-01,0.00000000e+00,7.00000000e-01,0.00000000e+00
1.04000000e-11,7.09685170e-01,0.00000000e+00,7.00000000e-01,0.00000000e+00
1.05000000e-11,7.08423986e-01,0.00000000e+00,7.00000000e-01,0.00000000e+00
1.06000000e-11,7.07377439e-01,0.00000000e+00,7.00000000e-01,0.00000000e+00
1.07000000e-11,7.06479770e-01,0.00000000e+00,7.00000000e-01,0.00000000e+00
1.08000000e-11,7.05582100e-01,0.00000000e+00,7.00000000e-01,0.00000000e+00
1.09000000e-11,7.04684430e-01,0.00000000e+00,7.00000000e-01,0.00000000e+00
1.10000000e-11,7.03786761e-01,0.00000000e+00,7.00000000e-01,0.00000000e+00
1.11000000e-11,7.03129191e-01,0.00000000e+00,7.00000000e-01,0.00000000e+00
1.12000000e-11,7.02589108e-01,0.00000000e+00,7.00000000e-01,0.00000000e+00
1.13000000e-11,7.02049024e-01,0.00000000e+00,7.00000000e-01,0.00000000e+00
1.14000000e-11,7.01508941e-01,0.00000000e+00,7.00000000e-01,0.00000000e+00
1.15000000e-11,7.00968858e-01,0.00000000e+00,7.00000000e-01,0.00000000e+00
1.16000000e-11,7.00597086e-01,0.00000000e+00,7.00000000e-01,0.00000000e+00
1.17000000e-11,7.00280691e-01,0.00000000e+00,7.00000000e-01,0.00000000e+00
1.18000000e-11,6.99964295e-01,0.00000000e+00,7.00000000e-01,0.00000000e+00
1.19000000e-11,6.99647900e-01,0.00000000e+00,7.00000000e-01,0.00000000e+00
1.20000000e-11,6.99331505e-01,0.00000000e+00,7.00000000e-01,0.00000000e+00
1.21000000e-11,6.99160018e-01,0.00000000e+00,7.00000000e-01,0.00000000e+00
1.22000000e-11,6.99017491e-01,0.00000000e+00,7.00000000e-01,0.00000000e+00
1.23000000e-11,6.98874965e-01,0.00000000e+00,7.00000000e-01,0.00000000e+00
1.24000000e-11,6.98732439e-01,0.00000000e+00,7.00000000e-01,0.00000000e+00
1.25000000e-11,6.98589912e-01,0.00000000e+00,7.00000000e-01,0.00000000e+00
1.26000000e-11,6.98447386e-01,0.00000000e+00,7.00000000e-01,0.00000000e+00
1.27000000e-11,6.98304860e-01,0.00000000e+00,7.00000000e-01,0.00000000e+00
1.28000000e-11,6.98162333e-01,0.00000000e+00,7.00000000e-01,0.00000000e+00
1.29000000e-11,6.98019807e-01,0.00000000e+00,7.00000000e-01,0.00000000e+00
1.30004578e-11,6.97876628e-01,0.00000000e+00,7.00000000e-01,0.00000000e+00
1.31000000e-11,6.97852939e-01,0.00000000e+00,7.00000000e-01,0.00000000e+00
1.32000000e-11,6.97829141e-01,0.00000000e+00,7.00000000e-01,0.00000000e+00
1.33000000e-11,6.97805344e-01,0.00000000e+00,7.00000000e-01,0.00000000e+00
1.34000000e-11,6.97781546e-01,0.00000000e+00,7.00000000e-01,0.00000000e+00
1.35000000e-11,6.97757748e-01,0.00000000e+00,7.00000000e-01,0.00000000e+00
1.36000000e-11,6.97733950e-01,0.00000000e+00,7.00000000e-01,0.00000000e+00
1.37000000e-11,6.97710153e-01,0.00000000e+00,7.00000000e-01,0.00000000e+00
1.38000000e-11,6.97686355e-01,0.00000000e+00,7.00000000e-01,0.00000000e+00
1.39000000e-11,6.97662557e-01,0.00000000e+00,7.00000000e-01,0.00000000e+00
1.40000000e-11,6.97645367e-01,0.00000000e+00,7.00000000e-01,0.00000000e+00
1.41000000e-11,6.97663548e-01,0.00000000e+00,7.00000000e-01,0.00000000e+00
1.42000000e-11,6.97681730e-01,0.00000000e+00,7.00000000e-01,0.00000000e+00
1.43000000e-11,6.97699911e-01,0.00000000e+00,7.00000000e-01,0.00000000e+00
1.44000000e-11,6.97718092e-01,0.00000000e+00,7.00000000e-01,0.00000000e+00
1.45000000e-11,6.97736273e-01,0.00000000e+00,7.00000000e-01,0.00000000e+00
1.46000000e-11,6.97754455e-01,0.00000000e+00,7.00000000e-01,0.00000000e+00
1.47000000e-11,6.97772636e-01,0.00000000e+00,7.00000000e-01,0.00000000e+00
1.48000000e-11,6.97790817e-01,0.00000000e+00,7.00000000e-01,0.00000000e+00
1.49000000e-11,6.97808999e-01,0.00000000e+00,7.00000000e-01,0.00000000e+00
1.50000000e-11,6.97827180e-01,0.00000000e+00,7.00000000e-01,0.00000000e+00
1.51000000e-11,6.97845361e-01,0.00000000e+00,7.00000000e-01,0.00000000e+00
1.52000000e-11,6.97863542e-01,0.00000000e+00,7.00000000e-01,0.00000000e+00
1.53000000e-11,6.97881724e-01,0.00000000e+00,7.00000000e-01,0.00000000e+00
1.54000000e-11,6.97899905e-01,0.00000000e+00,7.00000000e-01,0.00000000e+00
1.55000000e-11,6.97918086e-01,0.00000000e+00,7.00000000e-01,0.00000000e+00
1.56000000e-11,6.97936268e-01,0.00000000e+00,7.00000000e-01,0.00000000e+00
1.57000000e-11,6.97954449e-01,0.00000000e+00,7.00000000e-01,0.00000000e+00
1.58000000e-11,6.97972630e-01,0.00000000e+00,7.00000000e-01,0.00000000e+00
1.59000000e-11,6.97990811e-01,0.00000000e+00,7.00000000e-01,0.00000000e+00
1.60000000e-11,6.98012150e-01,0.00000000e+00,7.00000000e-01,0.00000000e+00
1.61000000e-11,6.98036890e-01,0.00000000e+00,7.00000000e-01,0.00000000e+00
1.62000000e-11,6.98061631e-01,0.00000000e+00,7.00000000e-01,0.00000000e+00
1.63000000e-11,6.98086371e-01,0.00000000e+00,7.00000000e-01,0.00000000e+00
1.64000000e-11,6.98111112e-01,0.00000000e+00,7.00000000e-01,0.00000000e+00
1.65000000e-11,6.98135852e-01,0.00000000e+00,7.00000000e-01,0.00000000e+00
1.66000000e-11,6.98160592e-01,0.00000000e+00,7.00000000e-01,0.00000000e+00
1.67000000e-11,6.98185333e-01,0.00000000e+00,7.00000000e-01,0.00000000e+00
1.68000000e-11,6.98210073e-01,0.00000000e+00,7.00000000e-01,0.00000000e+00
1.69000000e-11,6.98234813e-01,0.00000000e+00,7.00000000e-01,0.00000000e+00
1.70000000e-11,6.98259554e-01,0.00000000e+00,7.00000000e-01,0.00000000e+00
1.71000000e-11,6.98284294e-01,0.00000000e+00,7.00000000e-01,0.00000000e+00
1.72000000e-11,6.98309034e-01,0.00000000e+00,7.00000000e-01,0.00000000e+00
1.73000000e-11,6.98333775e-01,0.00000000e+00,7.00000000e-01,0.00000000e+00
1.74000000e-11,6.98358515e-01,0.00000000e+00,7.00000000e-01,0.00000000e+00
1.75000000e-11,6.98383256e-01,0.00000000e+00,7.00000000e-01,0.00000000e+00
1.76000000e-11,6.98407996e-01,0.00000000e+00,7.00000000e-01,0.00000000e+00
1.77000000e-11,6.98432736e-01,0.00000000e+00,7.00000000e-01,0.00000000e+00
1.78000000e-11,6.98457477e-01,0.00000000e+00,7.00000000e-01,0.00000000e+00
1.79000000e-11,6.98482217e-01,0.00000000e+00,7.00000000e-01,0.00000000e+00
1.80000000e-11,6.98500287e-01,0.00000000e+00,7.00000000e-01,0.00000000e+00
1.81000000e-11,6.98516745e-01,0.00000000e+00,7.00000000e-01,0.00000000e+00
1.82000000e-11,6.98533203e-01,0.00000000e+00,7.00000000e-01,0.00000000e+00
1.83000000e-11,6.98549661e-01,0.00000000e+00,7.00000000e-01,0.00000000e+00
1.84000000e-11,6.98566120e-01,0.00000000e+00,7.00000000e-01,0.00000000e+00
1.85000000e-11,6.98582578e-01,0.00000000e+00,7.00000000e-01,0.00000000e+00
1.86000000e-11,6.98599036e-01,0.00000000e+00,7.00000000e-01,0.00000000e+00
1.87000000e-11,6.98615494e-01,0.00000000e+00,7.00000000e-01,0.00000000e+00
1.88000000e-11,6.98631952e-01,0.00000000e+00,7.00000000e-01,0.00000000e+00
1.89000000e-11,6.98648410e-01,0.00000000e+00,7.00000000e-01,0.00000000e+00
1.90000000e-11,6.98664868e-01,0.00000000e+00,7.00000000e-01,0.00000000e+00
1.91000000e-11,6.98681326e-01,0.00000000e+00,7.00000000e-01,0.00000000e+00
1.92000000e-11,6.98697785e-01,0.00000000e+00,7.00000000e-01,0.00000000e+00
1.93000000e-11,6.98714243e-01,0.00000000e+00,7.00000000e-01,0.00000000e+00
1.94000000e-11,6.98730701e-01,0.00000000e+00,7.00000000e-01,0.00000000e+00
1.95000000e-11,6.98747159e-01,0.00000000e+00,7.00000000e-01,0.00000000e+00
1.96000000e-11,6.98763617e-01,0.00000000e+00,7.00000000e-01,0.00000000e+00
1.97000000e-11,6.98780075e-01,0.00000000e+00,7.00000000e-01,0.00000000e+00
1.98000000e-11,6.98796533e-01,0.00000000e+00,7.00000000e-01,0.00000000e+00
1.99000000e-11,6.98812081e-01,0.00000000e+00,7.00000000e-01,0.00000000e+00
2.00000000e-11,6.98821501e-01,0.00000000e+00,7.00000000e-01,0.00000000e+00
2.01000000e-11,6.98830921e-01,0.00000000e+00,7.00000000e-01,0.00000000e+00
2.02000000e-11,6.98840341e-01,0.00000000e+00,7.00000000e-01,0.00000000e+00
2.03000000e-11,6.98849761e-01,0.00000000e+00,7.00000000e-01,0.00000000e+00
2.04000000e-11,6.98859181e-01,0.00000000e+00,7.00000000e-01,0.00000000e+00
2.05000000e-11,6.98868601e-01,0.00000000e+00,7.00000000e-01,0.00000000e+00
2.06000000e-11,6.98878020e-01,0.00000000e+00,7.00000000e-01,0.00000000e+00
2.07000000e-11,6.98887440e-01,0.00000000e+00,7.00000000e-01,0.00000000e+00
2.08000000e-11,6.98896860e-01,0.00000000e+00,7.00000000e-01,0.00000000e+00
2.09000000e-11,6.98906280e-01,0.00000000e+00,7.00000000e-01,0.00000000e+00
2.10000000e-11,6.98915700e-01,0.00000000e+00,7.00000000e-01,0.00000000e+00
2.11000000e-11,6.98925120e-01,0.00000000e+00,7.00000000e-01,0.00000000e+00
2.12000000e-11,6.98934540e-01,0.00000000e+00,7.00000000e-01,0.00000000e+00
2.13000000e-11,6.98943960e-01,0.00000000e+00,7.00000000e-01,0.00000000e+00
2.14000000e-11,6.98953380e-01,0.00000000e+00,7.00000000e-01,0.00000000e+00
2.15000000e-11,6.98962800e-01,0.00000000e+00,7.00000000e-01,0.00000000e+00
2.16000000e-11,6.98972220e-01,0.00000000e+00,7.00000000e-01,0.00000000e+00
2.17000000e-11,6.98981639e-01,0.00000000e+00,7.00000000e-01,0.00000000e+00
2.18000000e-11,6.98991059e-01,0.00000000e+00,7.00000000e-01,0.00000000e+00
2.19000000e-11,6.99000479e-01,0.00000000e+00,7.00000000e-01,0.00000000e+00
2.20000000e-11,6.99009899e-01,0.00000000e+00,7.00000000e-01,0.00000000e+00
2.21000000e-11,6.99019319e-01,0.00000000e+00,7.00000000e-01,0.00000000e+00
2.22000000e-11,6.99028739e-01,0.00000000e+00,7.00000000e-01,0.00000000e+00
2.23000000e-11,6.99038159e-01,0.00000000e+00,7.00000000e-01,0.00000000e+00
2.24000000e-11,6.99047579e-01,0.00000000e+00,7.00000000e-01,0.00000000e+00
2.25000000e-11,6.99056999e-01,0.00000000e+00,7.00000000e-01,0.00000000e+00
2.26000000e-11,6.99066419e-01,0.00000000e+00,7.00000000e-01,0.00000000e+00
2.27000000e-11,6.99075839e-01,0.00000000e+00,7.00000000e-01,0.00000000e+00
2.28000000e-11,6.99085259e-01,0.00000000e+00,7.00000000e-01,0.00000000e+00
2.29000000e-11,6.99094678e-01,0.00000000e+00,7.00000000e-01,0.00000000e+00
2.30000000e-11,6.99104098e-01,0.00000000e+00,7.00000000e-01,0.00000000e+00
2.31000000e-11,6.99113518e-01,0.00000000e+00,7.00000000e-01,0.00000000e+00
2.32000000e-11,6.99122938e-01,0.00000000e+00,7.00000000e-01,0.00000000e+00
2.33000000e-11,6.99132358e-01,0.00000000e+00,7.00000000e-01,0.00000000e+00
2.34000000e-11,6.99141778e-01,0.00000000e+00,7.00000000e-01,0.00000000e+00
2.35000000e-11,6.99151198e-01,0.00000000e+00,7.00000000e-01,0.00000000e+00
2.36000000e-11,6.99160618e-01,0.00000000e+00,7.00000000e-01,0.00000000e+00
2.37000000e-11,6.99170038e-01,0.00000000e+00,7.00000000e-01,0.00000000e+00
2.38000000e-11,6.99179458e-01,0.00000000e+00,7.00000000e-01,0.00000000e+00
2.39000000e-11,6.99184699e-01,0.00000000e+00,7.00000000e-01,0.00000000e+00
2.40000000e-11,6.99188742e-01,0.00000000e+00,7.00000000e-01,0.00000000e+00
2.41000000e-11,6.99192786e-01,0.00000000e+00,7.00000000e-01,0.00000000e+00
2.42000000e-11,6.99196830e-01,0.00000000e+00,7.00000000e-01,0.00000000e+00
2.43000000e-11,6.99200873e-01,0.00000000e+00,7.00000000e-01,0.00000000e+00
2.44000000e-11,6.99204917e-01,0.00000000e+00,7.00000000e-01,0.00000000e+00
2.45000000e-11,6.99208961e-01,0.00000000e+00,7.00000000e-01,0.00000000e+00
2.46000000e-11,6.99213005e-01,0.00000000e+00,7.00000000e-01,0.00000000e+00
2.47000000e-11,6.99217048e-01,0.00000000e+00,7.00000000e-01,0.00000000e+00
2.48000000e-11,6.99221092e-01,0.00000000e+00,7.00000000e-01,0.00000000e+00
2.49000000e-11,6.99225136e-01,0.00000000e+00,7.00000000e-01,0.00000000e+00
2.50000000e-11,6.99229179e-01,0.00000000e+00,7.00000000e-01,0.00000000e+00
2.51000000e-11,6.99233223e-01,0.00000000e+00,7.00000000e-01,0.00000000e+00
2.52000000e-11,6.99237267e-01,0.00000000e+00,7.00000000e-01,0.00000000e+00
2.53000000e-11,6.99241311e-01,0.00000000e+00,7.00000000e-01,0.00000000e+00
2.54000000e-11,6.99245354e-01,0.00000000e+00,7.00000000e-01,0.00000000e+00
2.55000000e-11,6.99249398e-01,0.00000000e+00,7.00000000e-01,0.00000000e+00
2.56000000e-11,6.99253442e-01,0.00000000e+00,7.00000000e-01,0.00000000e+00
2.57000000e-11,6.99257485e-01,0.00000000e+00,7.00000000e-01,0.00000000e+00
2.58000000e-11,6.99261529e-01,0.00000000e+00,7.00000000e-01,0.00000000e+00
2.59000000e-11,6.99265573e-01,0.00000000e+00,7.00000000e-01,0.00000000e+00
2.60000000e-11,6.99269616e-01,0.00000000e+00,7.00000000e-01,0.00000000e+00
2.61000000e-11,6.99273660e-01,0.00000000e+00,7.00000000e-01,0.00000000e+00
2.62000000e-11,6.99277704e-01,0.00000000e+00,7.00000000e-01,0.00000000e+00
2.63000000e-11,6.99281748e-01,0.00000000e+00,7.00000000e-01,0.00000000e+00
2.64000000e-11,6.99285791e-01,0.00000000e+00,7.00000000e-01,0.00000000e+00
2.65000000e-11,6.99289835e-01,0.00000000e+00,7.00000000e-01,0.00000000e+00
