TIME,V(OUT),V(IN1),V(IN2),V(IN3)
0.00000000e+00,6.99999971e-01,0.00000000e+00,0.00000000e+00,0.00000000e+00
1.00000000e-13,7.02818311e-01,7.00000000e-03,0.00000000e+00,0.00000000e+00
2.00000000e-13,7.04647403e-01,1.40000000e-02,0.00000000e+00,0.00000000e+00
3.00000000e-13,7.05897400e-01,2.10000000e-02,0.00000000e+00,0.00000000e+00
4.00000000e-13,7.06685952e-01,2.80000000e-02,0.00000000e+00,0.00000000e+00
5.00000000e-13,7.07474505e-01,3.50000000e-02,0.00000000e+00,0.00000000e+00
6.00000000e-13,7.07736539e-01,4.20000000e-02,0.00000000e+00,0.00000000e+00
7.00000000e-13,7.07933498e-01,4.90000000e-02,0.00000000e+00,0.00000000e+00
8.00000000e-13,7.08130456e-01,5.60000000e-02,0.00000000e+00,0.00000000e+00
9.00000000e-13,7.08327415e-01,6.30000000e-02,0.00000000e+00,0.00000000e+00
1.00000000e-12,7.08524373e-01,7.00000000e-02,0.00000000e+00,0.00000000e+00
1.10000000e-12,7.08584379e-01,7.70000000e-02,0.00000000e+00,0.00000000e+00
1.20000000e-12,7.08603477e-01,8.40000000e-02,0.00000000e+00,0.00000000e+00
1.30000000e-12,7.08622574e-01,9.10000000e-02,0.00000000e+00,0.00000000e+00
1.40000000e-12,7.08641672e-01,9.80000000e-02,0.00000000e+00,0.00000000e+00
1.50000000e-12,7.08660770e-01,1.05000000e-01,0.00000000e+00,0.00000000e+00
1.60000000e-12,7.08684620e-01,1.12000000e-01,0.00000000e+00,0.00000000e+00
1.70000000e-12,7.08711030e-01,1.19000000e-01,0.00000000e+00,0.00000000e+00
1.80000000e-12,7.08737439e-01,1.26000000e-01,0.00000000e+00,0.00000000e+00
1.90000000e-12,7.08763849e-01,1.33000000e-01,0.00000000e+00,0.00000000e+00
2.00000000e-12,7.08790258e-01,1.40000000e-01,0.00000000e+00,0.00000000e+00
2.10000000e-12,7.08816668e-01,1.47000000e-01,0.00000000e+00,0.00000000e+00
2.20000000e-12,7.08843078e-01,1.54000000e-01,0.00000000e+00,0.00000000e+00
2.30000000e-12,7.08869487e-01,1.61000000e-01,0.00000000e+00,0.00000000e+00
2.40000000e-12,7.08895897e-01,1.68000000e-01,0.00000000e+00,0.00000000e+00
2.50000000e-12,7.08922306e-01,1.75000000e-01,0.00000000e+00,0.00000000e+00
2.60000000e-12,7.08949077e-01,1.82000000e-01,0.00000000e+00,0.00000000e+00
2.70000000e-12,7.08976366e-01,1.89000000e-01,0.00000000e+00,0.00000000e+00
2.80000000e-12,7.09003655e-01,1.96000000e-01,0.00000000e+00,0.00000000e+00
2.90000000e-12,7.09030944e-01,2.03000000e-01,0.00000000e+00,0.00000000e+00
3.00000000e-12,7.09058233e-01,2.10000000e-01,0.00000000e+00,0.00000000e+00
3.10000000e-12,7.09085522e-01,2.17000000e-01,0.00000000e+00,0.00000000e+00
3.20000000e-12,7.09112811e-01,2.24000000e-01,0.00000000e+00,0.00000000e+00
3.30000000e-12,7.09140100e-01,2.31000000e-01,0.00000000e+00,0.00000000e+00
3.40000000e-12,7.09167389e-01,2.38000000e-01,0.00000000e+00,0.00000000e+00
3.50000000e-12,7.09194678e-01,2.45000000e-01,0.00000000e+00,0.00000000e+00
3.60000000e-12,7.09219653e-01,2.52000000e-01,0.00000000e+00,0.00000000e+00
3.70000000e-12,7.09233329e-01,2.59000000e-01,0.00000000e+00,0.00000000e+00
3.80000000e-12,7.09247005e-01,2.66000000e-01,0.00000000e+00,0.00000000e+00
3.90000000e-12,7.09260682e-01,2.73000000e-01,0.00000000e+00,0.00000000e+00
4.00000000e-12,7.09274358e-01,2.80000000e-01,0.00000000e+00,0.00000000e+00
4.10000000e-12,7.09288034e-01,2.87000000e-01,0.00000000e+00,0.00000000e+00
4.20000000e-12,7.09301710e-01,2.94000000e-01,0.00000000e+00,0.00000000e+00
4.30000000e-12,7.09315387e-01,3.01000000e-01,0.00000000e+00,0.00000000e+00
4.40000000e-12,7.09329063e-01,3.08000000e-01,0.00000000e+00,0.00000000e+00
4.50000000e-12,7.09342739e-01,3.15000000e-01,0.00000000e+00,0.00000000e+00
4.60000000e-12,7.09356415e-01,3.22000000e-01,0.00000000e+00,0.00000000e+00
4.70000000e-12,7.09370092e-01,3.29000000e-01,0.00000000e+00,0.00000000e+00
4.80000000e-12,7.09383768e-01,3.36000000e-01,0.00000000e+00,0.00000000e+00
4.90000000e-12,7.09397444e-01,3.43000000e-01,0.00000000e+00,0.00000000e+00
5.00000000e-12,7.09411120e-01,3.50000000e-01,0.00000000e+00,0.00000000e+00
5.10000000e-12,7.09424797e-01,3.57000000e-01,0.00000000e+00,0.00000000e+00
5.20000000e-12,7.09438473e-01,3.64000000e-01,0.00000000e+00,0.00000000e+00
5.30000000e-12,7.09452149e-01,3.71000000e-01,0.00000000e+00,0.00000000e+00
5.40000000e-12,7.09465826e-01,3.78000000e-01,0.00000000e+00,0.00000000e+00
5.50000000e-12,7.09479502e-01,3.85000000e-01,0.00000000e+00,0.00000000e+00
5.60000000e-12,7.09493178e-01,3.92000000e-01,0.00000000e+00,0.00000000e+00
5.70000000e-12,7.09451365e-01,3.99000000e-01,0.00000000e+00,0.00000000e+00
5.80000000e-12,7.09384622e-01,4.06000000e-01,0.00000000e+00,0.00000000e+00
5.90000000e-12,7.09317879e-01,4.13000000e-01,0.00000000e+00,0.00000000e+00
6.00000000e-12,7.09251135e-01,4.20000000e-01,0.00000000e+00,0.00000000e+00
6.10000000e-12,7.09184392e-01,4.27000000e-01,0.00000000e+00,0.00000000e+00
6.20000000e-12,7.09117649e-01,4.34000000e-01,0.00000000e+00,0.00000000e+00
6.30000000e-12,7.09050906e-01,4.41000000e-01,0.00000000e+00,0.00000000e+00
6.40000000e-12,7.08984163e-01,4.48000000e-01,0.00000000e+00,0.00000000e+00
6.50000000e-12,7.08917419e-01,4.55000000e-01,0.00000000e+00,0.00000000e+00
6.60000000e-12,7.08850676e-01,4.62000000e-01,0.00000000e+00,0.00000000e+00
6.70000000e-12,7.08783933e-01,4.69000000e-01,0.00000000e+00,0.00000000e+00
6.80000000e-12,7.08717190e-01,4.76000000e-01,0.00000000e+00,0.00000000e+00
6.90000000e-12,7.08650447e-01,4.83000000e-01,0.00000000e+00,0.00000000e+00
7.00000000e-12,7.08583704e-01,4.90000000e-01,0.00000000e+00,0.00000000e+00
7.10000000e-12,7.08516960e-01,4.97000000e-01,0.00000000e+00,0.00000000e+00
7.20000000e-12,7.08450217e-01,5.04000000e-01,0.00000000e+00,0.00000000e+00
7.30000000e-12,7.08383474e-01,5.11000000e-01,0.00000000e+00,0.00000000e+00
7.40000000e-12,7.08276286e-01,5.18000000e-01,0.00000000e+00,0.00000000e+00
7.50000000e-12,7.08106914e-01,5.25000000e-01,0.00000000e+00,0.00000000e+00
7.60000000e-12,7.07937542e-01,5.32000000e-01,0.00000000e+00,0.00000000e+00
7.70000000e-12,7.07768170e-01,5.39000000e-01,0.00000000e+00,0.00000000e+00
7.80000000e-12,7.07598798e-01,5.46000000e-01,0.00000000e+00,0.00000000e+00
7.90000000e-12,7.07429426e-01,5.53000000e-01,0.00000000e+00,0.00000000e+00
8.00000000e-12,7.07260054e-01,5.60000000e-01,0.00000000e+00,0.00000000e+00
8.10000000e-12,7.07090682e-01,5.67000000e-01,0.00000000e+00,0.00000000e+00
8.20000000e-12,7.06955856e-01,5.74000000e-01,0.00000000e+00,0.00000000e+00
8.30000000e-12,7.06838661e-01,5.81000000e-01,0.00000000e+00,0.00000000e+00
8.40000000e-12,7.06721466e-01,5.88000000e-01,0.00000000e+00,0.00000000e+00
8.50000000e-12,7.06604271e-01,5.95000000e-01,0.00000000e+00,0.00000000e+00
8.60000000e-12,7.06487076e-01,6.02000000e-01,0.00000000e+00,0.00000000e+00
8.70000000e-12,7.06369880e-01,6.09000000e-01,0.00000000e+00,0.00000000e+00
8.80000000e-12,7.06252685e-01,6.16000000e-01,0.00000000e+00,0.00000000e+00
8.90000000e-12,7.06135490e-01,6.23000000e-01,0.00000000e+00,0.00000000e+00
9.00000000e-12,7.06071146e-01,6.30000000e-01,0.00000000e+00,0.00000000e+00
9.10000000e-12,7.06010773e-01,6.37000000e-01,0.00000000e+00,0.00000000e+00
9.20000000e-12,7.05950400e-01,6.44000000e-01,0.00000000e+00,0.00000000e+00
9.30000000e-12,7.05890027e-01,6.51000000e-01,0.00000000e+00,0.00000000e+00
9.40000000e-12,7.05829654e-01,6.58000000e-01,0.00000000e+00,0.00000000e+00
9.50000000e-12,7.05769282e-01,6.65000000e-01,0.00000000e+00,0.00000000e+00
9.60000000e-12,7.05708909e-01,6.72000000e-01,0.00000000e+00,0.00000000e+00
9.70000000e-12,7.05644685e-01,6.79000000e-01,0.00000000e+00,0.00000000e+00
9.80000000e-12,7.05564872e-01,6.86000000e-01,0.00000000e+00,0.00000000e+00
9.90000000e-12,7.05485060e-01,6.93000000e-01,0.00000000e+00,0.00000000e+00
1.00000000e-11,7.05405247e-01,7.00000000e-01,0.00000000e+00,0.00000000e+00
1.01000000e-11,7.03613103e-01,7.00000000e-01,0.00000000e+00,0.00000000e+00
1.02000000e-11,7.02208556e-01,7.00000000e-01,0.00000000e+00,0.00000000e+00
1.03000000e-11,7.01186020e-01,7.00000000e-01,0.00000000e+00,0.00000000e+00
1.04000000e-11,7.00362240e-01,7.00000000e-01,0.00000000e+00,0.00000000e+00
1.05000000e-11,6.99955386e-01,7.00000000e-01,0.00000000e+00,0.00000000e+00
1.06000000e-11,6.99548532e-01,7.00000000e-01,0.00000000e+00,0.00000000e+00
1.07000000e-11,6.99155921e-01,7.00000000e-01,0.00000000e+00,0.00000000e+00
1.08000000e-11,6.99094716e-01,7.00000000e-01,0.00000000e+00,0.00000000e+00
1.09000000e-11,6.99033510e-01,7.00000000e-01,0.00000000e+00,0.00000000e+00
1.10000000e-11,6.98972305e-01,7.00000000e-01,0.00000000e+00,0.00000000e+00
1.11000000e-11,6.98911099e-01,7.00000000e-01,0.00000000e+00,0.00000000e+00
1.12000000e-11,6.98849894e-01,7.00000000e-01,0.00000000e+00,0.00000000e+00
1.13000000e-11,6.98788689e-01,7.00000000e-01,0.00000000e+00,0.00000000e+00
1.14000000e-11,6.98812984e-01,7.00000000e-01,0.00000000e+00,0.00000000e+00
1.15000000e-11,6.98851708e-01,7.00000000e-01,0.00000000e+00,0.00000000e+00
1.16000000e-11,6.98890432e-01,7.00000000e-01,0.00000000e+00,0.00000000e+00
1.17000000e-11,6.98929156e-01,7.00000000e-01,0.00000000e+00,0.00000000e+00
1.18000000e-11,6.98967880e-01,7.00000000e-01,0.00000000e+00,0.00000000e+00
1.19000000e-11,6.99006604e-01,7.00000000e-01,0.00000000e+00,0.00000000e+00
1.20000000e-11,6.99034904e-01,7.00000000e-01,0.00000000e+00,0.00000000e+00
1.21000000e-11,6.99058070e-01,7.00000000e-01,0.00000000e+00,0.00000000e+00
1.22000000e-11,6.99081237e-01,7.00000000e-01,0.00000000e+00,0.00000000e+00
1.23000000e-11,6.99104403e-01,7.00000000e-01,0.00000000e+00,0.00000000e+00
1.24000000e-11,6.99127569e-01,7.00000000e-01,0.00000000e+00,0.00000000e+00
1.25000000e-11,6.99150735e-01,7.00000000e-01,0.00000000e+00,0.00000000e+00
1.26000000e-11,6.99173902e-01,7.00000000e-01,0.00000000e+00,0.00000000e+00
1.27000000e-11,6.99197068e-01,7.00000000e-01,0.00000000e+00,0.00000000e+00
1.28000000e-11,6.99220234e-01,7.00000000e-01,0.00000000e+00,0.00000000e+00
1.29000000e-11,6.99243400e-01,7.00000000e-01,0.00000000e+00,0.00000000e+00
1.30000000e-11,6.99266567e-01,7.00000000e-01,0.00000000e+00,0.00000000e+00
1.31000000e-11,6.99289733e-01,7.00000000e-01,0.00000000e+00,0.00000000e+00
1.32000000e-11,6.99309788e-01,7.00000000e-01,0.00000000e+00,0.00000000e+00
1.33000000e-11,6.99322541e-01,7.00000000e-01,0.00000000e+00,0.00000000e+00
1.34000000e-11,6.99335295e-01,7.00000000e-01,0.00000000e+00,0.00000000e+00
1.35000000e-11,6.99348049e-01,7.00000000e-01,0.00000000e+00,0.00000000e+00
1.36000000e-11,6.99360803e-01,7.00000000e-01,0.00000000e+00,0.00000000e+00
1.37000000e-11,6.99373557e-01,7.00000000e-01,0.00000000e+00,0.00000000e+00
1.38000000e-11,6.99386310e-01,7.00000000e-01,0.00000000e+00,0.00000000e+00
1.39000000e-11,6.99399064e-01,7.00000000e-01,0.00000000e+00,0.00000000e+00
1.40000000e-11,6.99411818e-01,7.00000000e-01,0.00000000e+00,0.00000000e+00
1.41000000e-11,6.99424572e-01,7.00000000e-01,0.00000000e+00,0.00000000e+00
1.42000000e-11,6.99437326e-01,7.00000000e-01,0.00000000e+00,0.00000000e+00
1.43000000e-11,6.99450079e-01,7.00000000e-01,0.00000000e+00,0.00000000e+00
1.44000000e-11,6.99462833e-01,7.00000000e-01,0.00000000e+00,0.00000000e+00
1.45000000e-11,6.99470352e-01,7.00000000e-01,0.00000000e+00,0.00000000e+00
1.46000000e-11,6.99477463e-01,7.00000000e-01,0.00000000e+00,0.00000000e+00
1.47000000e-11,6.99484574e-01,7.00000000e-01,0.00000000e+00,0.00000000e+00
1.48000000e-11,6.99491685e-01,7.00000000e-01,0.00000000e+00,0.00000000e+00
1.49000000e-11,6.99498796e-01,7.00000000e-01,0.00000000e+00,0.00000000e+00
1.50000000e-11,6.99505907e-01,7.00000000e-01,0.00000000e+00,0.00000000e+00
1.51000000e-11,6.99513018e-01,7.00000000e-01,0.00000000e+00,0.00000000e+00
1.52000000e-11,6.99520129e-01,7.00000000e-01,0.00000000e+00,0.00000000e+00
1.53000000e-11,6.99527240e-01,7.00000000e-01,0.00000000e+00,0.00000000e+00
1.54000000e-11,6.99534351e-01,7.00000000e-01,0.00000000e+00,0.00000000e+00
1.55000000e-11,6.99541462e-01,7.00000000e-01,0.00000000e+00,0.00000000e+00
1.56000000e-11,6.99548573e-01,7.00000000e-01,0.00000000e+00,0.00000000e+00
1.57000000e-11,6.99555684e-01,7.00000000e-01,0.00000000e+00,0.00000000e+00
1.58000000e-11,6.99562795e-01,7.00000000e-01,0.00000000e+00,0.00000000e+00
1.59000000e-11,6.99569906e-01,7.00000000e-01,0.00000000e+00,0.00000000e+00
1.60000000e-11,6.99577017e-01,7.00000000e-01,0.00000000e+00,0.00000000e+00
1.61000000e-11,6.99584128e-01,7.00000000e-01,0.00000000e+00,0.00000000e+00
1.62000000e-11,6.99591239e-01,7.00000000e-01,0.00000000e+00,0.00000000e+00
1.63000000e-11,6.99598350e-01,7.00000000e-01,0.00000000e+00,0.00000000e+00
1.64000000e-11,6.99605461e-01,7.00000000e-01,0.00000000e+00,0.00000000e+00
1.65000000e-11,6.99612572e-01,7.00000000e-01,0.00000000e+00,0.00000000e+00
1.66000000e-11,6.99619683e-01,7.00000000e-01,0.00000000e+00,0.00000000e+00
1.67000000e-11,6.99626794e-01,7.00000000e-01,0.00000000e+00,0.00000000e+00
1.68000000e-11,6.99633905e-01,7.00000000e-01,0.00000000e+00,0.00000000e+00
1.69000000e-11,6.99640354e-01,7.00000000e-01,0.00000000e+00,0.00000000e+00
1.70000000e-11,6.99643891e-01,7.00000000e-01,0.00000000e+00,0.00000000e+00
1.71000000e-11,6.99647428e-01,7.00000000e-01,0.00000000e+00,0.00000000e+00
1.72000000e-11,6.99650964e-01,7.00000000e-01,0.00000000e+00,0.00000000e+00
1.73000000e-11,6.99654501e-01,7.00000000e-01,0.00000000e+00,0.00000000e+00
1.74000000e-11,6.99658038e-01,7.00000000e-01,0.00000000e+00,0.00000000e+00
1.75000000e-11,6.99661575e-01,7.00000000e-01,0.00000000e+00,0.00000000e+00
1.76000000e-11,6.99665112e-01,7.00000000e-01,0.00000000e+00,0.00000000e+00
1.77000000e-11,6.99668648e-01,7.00000000e-01,0.00000000e+00,0.00000000e+00
1.78000000e-11,6.99672185e-01,7.00000000e-01,0.00000000e+00,0.00000000e+00
1.79000000e-11,6.99675722e-01,7.00000000e-01,0.00000000e+00,0.00000000e+00
1.80000000e-11,6.99679259e-01,7.00000000e-01,0.00000000e+00,0.00000000e+00
1.81000000e-11,6.99682795e-01,7.00000000e-01,0.00000000e+00,0.00000000e+00
1.82000000e-11,6.99686332e-01,7.00000000e-01,0.00000000e+00,0.00000000e+00
1.83000000e-11,6.99689869e-01,7.00000000e-01,0.00000000e+00,0.00000000e+00
1.84000000e-11,6.99693406e-01,7.00000000e-01,0.00000000e+00,0.00000000e+00
1.85000000e-11,6.99696943e-01,7.00000000e-01,0.00000000e+00,0.00000000e+00
1.86000000e-11,6.99700479e-01,7.00000000e-01,0.00000000e+00,0.00000000e+00
1.87000000e-11,6.99704016e-01,7.00000000e-01,0.00000000e+00,0.00000000e+00
1.88000000e-11,6.99707553e-01,7.00000000e-01,0.00000000e+00,0.00000000e+00
1.89000000e-11,6.99711090e-01,7.00000000e-01,0.00000000e+00,0.00000000e+00
1.90000000e-11,6.99714626e-01,7.00000000e-01,0.00000000e+00,0.00000000e+00
1.91000000e-11,6.99718163e-01,7.00000000e-01,0.00000000e+00,0.00000000e+00
1.92000000e-11,6.99721700e-01,7.00000000e-01,0.00000000e+00,0.00000000e+00
1.93000000e-11,6.99725237e-01,7.00000000e-01,0.00000000e+00,0.00000000e+00
1.94000000e-11,6.99728201e-01,7.00000000e-01,0.00000000e+00,0.00000000e+00
1.95000000e-11,6.99730445e-01,7.00000000e-01,0.00000000e+00,0.00000000e+00
1.96000000e-11,6.99732688e-01,7.00000000e-01,0.00000000e+00,0.00000000e+00
1.97000000e-11,6.99734932e-01,7.00000000e-01,0.00000000e+00,0.00000000e+00
1.98000000e-11,6.99737176e-01,7.00000000e-01,0.00000000e+00,0.00000000e+00
1.99000000e-11,6.99739420e-01,7.00000000e-01,0.00000000e+00,0.00000000e+00
2.00000000e-11,6.99741664e-01,7.00000000e-01,0.00000000e+00,0.00000000e+00
2.01000000e-11,6.99743907e-01,7.00000000e-01,0.00000000e+00,0.00000000e+00
2.02000000e-11,6.99746151e-01,7.00000000e-01,0.00000000e+00,0.00000000e+00
2.03000000e-11,6.99748395e-01,7.00000000e-01,0.00000000e+00,0.00000000e+00
2.04000000e-11,6.99750639e-01,7.00000000e-01,0.00000000e+00,0.00000000e+00
2.05000000e-11,6.99752882e-01,7.00000000e-01,0.00000000e+00,0.00000000e+00
2.06000000e-11,6.99755126e-01,7.00000000e-01,0.00000000e+00,0.00000000e+00
2.07000000e-11,6.99757370e-01,7.00000000e-01,0.00000000e+00,0.00000000e+00
2.08000000e-11,6.99759614e-01,7.00000000e-01,0.00000000e+00,0.00000000e+00
2.09000000e-11,6.99761858e-01,7.00000000e-01,0.00000000e+00,0.00000000e+00
2.10000000e-11,6.99764101e-01,7.00000000e-01,0.00000000e+00,0.00000000e+00
2.11000000e-11,6.99766345e-01,7.00000000e-01,0.00000000e+00,0.00000000e+00
2.12000000e-11,6.99768589e-01,7.00000000e-01,0.00000000e+00,0.00000000e+00
2.13000000e-11,6.99770833e-01,7.00000000e-01,0.00000000e+00,0.00000000e+00
2.14000000e-11,6.99773076e-01,7.00000000e-01,0.00000000e+00,0.00000000e+00
2.15000000e-11,6.99775320e-01,7.00000000e-01,0.00000000e+00,0.00000000e+00
2.16000000e-11,6.99777564e-01,7.00000000e-01,0.00000000e+00,0.00000000e+00
2.17000000e-11,6.99779808e-01,7.00000000e-01,0.00000000e+00,0.00000000e+00
2.18000000e-11,6.99782052e-01,7.00000000e-01,0.00000000e+00,0.00000000e+00
2.19000000e-11,6.99783614e-01,7.00000000e-01,0.00000000e+00,0.00000000e+00
2.20000000e-11,6.99784886e-01,7.00000000e-01,0.00000000e+00,0.00000000e+00
2.21000000e-11,6.99786157e-01,7.00000000e-01,0.00000000e+00,0.00000000e+00
2.22000000e-11,6.99787429e-01,7.00000000e-01,0.00000000e+00,0.00000000e+00
2.23000000e-11,6.99788700e-01,7.00000000e-01,0.00000000e+00,0.00000000e+00
2.24000000e-11,6.99789972e-01,7.00000000e-01,0.00000000e+00,0.00000000e+00
2.25000000e-11,6.99791243e-01,7.00000000e-01,0.00000000e+00,0.00000000e+00
2.26000000e-11,6.99792515e-01,7.00000000e-01,0.00000000e+00,0.00000000e+00
2.27000000e-11,6.99793786e-01,7.00000000e-01,0.00000000e+00,0.00000000e+00
2.28000000e-11,6.99795058e-01,7.00000000e-01,0.00000000e+00,0.00000000e+00
2.29000000e-11,6.99796329e-01,7.00000000e-01,0.00000000e+00,0.00000000e+00
2.30000000e-11,6.99797601e-01,7.00000000e-01,0.00000000e+00,0.00000000e+00
2.31000000e-11,6.99798872e-01,7.00000000e-01,0.00000000e+00,0.00000000e+00
2.32000000e-11,6.99800143e-01,7.00000000e-01,0.00000000e+00,0.00000000e+00
2.33000000e-11,6.99801415e-01,7.00000000e-01,0.00000000e+00,0.00000000e+00
2.34000000e-11,6.99802686e-01,7.00000000e-01,0.00000000e+00,0.00000000e+00
2.35000000e-11,6.99803958e-01,7.00000000e-01,0.00000000e+00,0.00000000e+00
2.36000000e-11,6.99805229e-01,7.00000000e-01,0.00000000e+00,0.00000000e+00
2.37000000e-11,6.99806501e-01,7.00000000e-01,0.00000000e+00,0.00000000e+00
2.38000000e-11,6.99807772e-01,7.00000000e-01,0.00000000e+00,0.00000000e+00
2.39000000e-11,6.99809044e-01,7.00000000e-01,0.00000000e+00,0.00000000e+00
2.40000000e-11,6.99810315e-01,7.00000000e-01,0.00000000e+00,0.00000000e+00
2.41000000e-11,6.99811587e-01,7.00000000e-01,0.00000000e+00,0.00000000e+00
2.42000000e-11,6.99812858e-01,7.00000000e-01,0.00000000e+00,0.00000000e+00
2.43000000e-11,6.99814130e-01,7.00000000e-01,0.00000000e+00,0.00000000e+00
2.44000000e-11,6.99815401e-01,7.00000000e-01,0.00000000e+00,0.00000000e+00
2.45000000e-11,6.99816673e-01,7.00000000e-01,0.00000000e+00,0.00000000e+00
2.46000000e-11,6.99817944e-01,7.00000000e-01,0.00000000e+00,0.00000000e+00
2.47000000e-11,6.99819216e-01,7.00000000e-01,0.00000000e+00,0.00000000e+00
2.48000000e-11,6.99820487e-01,7.00000000e-01,0.00000000e+00,0.00000000e+00
2.49000000e-11,6.99821759e-01,7.00000000e-01,0.00000000e+00,0.00000000e+00
2.50000000e-11,6.99823030e-01,7.00000000e-01,0.00000000e+00,0.00000000e+00
2.51000000e-11,6.99824302e-01,7.00000000e-01,0.00000000e+00,0.00000000e+00
2.52000000e-11,6.99825573e-01,7.00000000e-01,0.00000000e+00,0.00000000e+00
2.53000000e-11,6.99826845e-01,7.00000000e-01,0.00000000e+00,0.00000000e+00
2.54000000e-11,6.99828116e-01,7.00000000e-01,0.00000000e+00,0.00000000e+00
2.55000000e-11,6.99829387e-01,7.00000000e-01,0.00000000e+00,0.00000000e+00
2.56000000e-11,6.99830659e-01,7.00000000e-01,0.00000000e+00,0.00000000e+00
2.57000000e-11,6.99831930e-01,7.00000000e-01,0.00000000e+00,0.00000000e+00
2.58000000e-11,6.99833202e-01,7.00000000e-01,0.00000000e+00,0.00000000e+00
2.59000000e-11,6.99834473e-01,7.00000000e-01,0.00000000e+00,0.00000000e+00
2.60000000e-11,6.99835745e-01,7.00000000e-01,0.00000000e+00,0.00000000e+00
2.61000000e-11,6.99837016e-01,7.00000000e-01,0.00000000e+00,0.00000000e+00
2.62000000e-11,6.99838288e-01,7.00000000e-01,0.00000000e+00,0.00000000e+00
2.63000000e-11,6.99839559e-01,7.00000000e-01,0.00000000e+00,0.00000000e+00
2.64000000e-11,6.99840831e-01,7.00000000e-01,0.00000000e+00,0.00000000e+00
2.65000000e-11,6.99842102e-01,7.00000000e-01,0.00000000e+00,0.00000000e+00
