TIME,V(OUT),V(IN1),V(IN2),V(IN3)
0.00000000e+00,6.99997151e-01,0.00000000e+00,0.00000000e+00,0.00000000e+00
1.00000000e-13,7.04539839e-01,0.00000000e+00,0.00000000e+00,7.00000000e-03
2.00000000e-13,7.08858156e-01,0.00000000e+00,0.00000000e+00,1.40000000e-02
3.00000000e-13,7.12925068e-01,0.00000000e+00,0.00000000e+00,2.10000000e-02
4.00000000e-13,7.16756392e-01,0.00000000e+00,0.00000000e+00,2.80000000e-02
5.00000000e-13,7.20587716e-01,0.00000000e+00,0.00000000e+00,3.50000000e-02
6.00000000e-13,7.23992969e-01,0.00000000e+00,0.00000000e+00,4.20000000e-02
7.00000000e-13,7.27345560e-01,0.00000000e+00,0.00000000e+00,4.90000000e-02
8.00000000e-13,7.30579243e-01,0.00000000e+00,0.00000000e+00,5.60000000e-02
9.00000000e-13,7.33571505e-01,0.00000000e+00,0.00000000e+00,6.30000000e-02
1.00000000e-12,7.36563767e-01,0.00000000e+00,0.00000000e+00,7.00000000e-02
1.10000000e-12,7.39243249e-01,0.00000000e+00,0.00000000e+00,7.70000000e-02
1.20000000e-12,7.41829304e-01,0.00000000e+00,0.00000000e+00,8.40000000e-02
1.30000000e-12,7.44415359e-01,0.00000000e+00,0.00000000e+00,9.10000000e-02
1.40000000e-12,7.47001414e-01,0.00000000e+00,0.00000000e+00,9.80000000e-02
1.50000000e-12,7.49587469e-01,0.00000000e+00,0.00000000e+00,1.05000000e-01
1.60000000e-12,7.51884917e-01,0.00000000e+00,0.00000000e+00,1.12000000e-01
1.70000000e-12,7.54026962e-01,0.00000000e+00,0.00000000e+00,1.19000000e-01
1.80000000e-12,7.56169008e-01,0.00000000e+00,0.00000000e+00,1.26000000e-01
1.90000000e-12,7.58311053e-01,0.00000000e+00,0.00000000e+00,1.33000000e-01
2.00000000e-12,7.60453098e-01,0.00000000e+00,0.00000000e+00,1.40000000e-01
2.10000000e-12,7.62407484e-01,0.00000000e+00,0.00000000e+00,1.47000000e-01
2.20000000e-12,7.64195455e-01,0.00000000e+00,0.00000000e+00,1.54000000e-01
2.30000000e-12,7.65983426e-01,0.00000000e+00,0.00000000e+00,1.61000000e-01
2.40000000e-12,7.67771396e-01,0.00000000e+00,0.00000000e+00,1.68000000e-01
2.50000000e-12,7.69559367e-01,0.00000000e+00,0.00000000e+00,1.75000000e-01
2.60000000e-12,7.71222475e-01,0.00000000e+00,0.00000000e+00,1.82000000e-01
2.70000000e-12,7.72705902e-01,0.00000000e+00,0.00000000e+00,1.89000000e-01
2.80000000e-12,7.74189328e-01,0.00000000e+00,0.00000000e+00,1.96000000e-01
2.90000000e-12,7.75672755e-01,0.00000000e+00,0.00000000e+00,2.03000000e-01
3.00000000e-12,7.77156182e-01,0.00000000e+00,0.00000000e+00,2.10000000e-01
3.10000000e-12,7.78544362e-01,0.00000000e+00,0.00000000e+00,2.17000000e-01
3.20000000e-12,7.79699350e-01,0.00000000e+00,0.00000000e+00,2.24000000e-01
3.30000000e-12,7.80854338e-01,0.00000000e+00,0.00000000e+00,2.31000000e-01
3.40000000e-12,7.82009326e-01,0.00000000e+00,0.00000000e+00,2.38000000e-01
3.50000000e-12,7.83164314e-01,0.00000000e+00,0.00000000e+00,2.45000000e-01
3.60000000e-12,7.84229225e-01,0.00000000e+00,0.00000000e+00,2.52000000e-01
3.70000000e-12,7.84854347e-01,0.00000000e+00,0.00000000e+00,2.59000000e-01
3.80000000e-12,7.85479468e-01,0.00000000e+00,0.00000000e+00,2.66000000e-01
3.90000000e-12,7.86104590e-01,0.00000000e+00,0.00000000e+00,2.73000000e-01
4.00000000e-12,7.86729711e-01,0.00000000e+00,0.00000000e+00,2.80000000e-01
4.10000000e-12,7.87304047e-01,0.00000000e+00,0.00000000e+00,2.87000000e-01
4.20000000e-12,7.86913457e-01,0.00000000e+00,0.00000000e+00,2.94000000e-01
4.30000000e-12,7.86522866e-01,0.00000000e+00,0.00000000e+00,3.01000000e-01
4.40000000e-12,7.86132276e-01,0.00000000e+00,0.00000000e+00,3.08000000e-01
4.50000000e-12,7.85741685e-01,0.00000000e+00,0.00000000e+00,3.15000000e-01
4.60000000e-12,7.85351094e-01,0.00000000e+00,0.00000000e+00,3.22000000e-01
4.70000000e-12,7.83358720e-01,0.00000000e+00,0.00000000e+00,3.29000000e-01
4.80000000e-12,7.81245781e-01,0.00000000e+00,0.00000000e+00,3.36000000e-01
4.90000000e-12,7.79132843e-01,0.00000000e+00,0.00000000e+00,3.43000000e-01
5.00000000e-12,7.77019904e-01,0.00000000e+00,0.00000000e+00,3.50000000e-01
5.10000000e-12,7.74906965e-01,0.00000000e+00,0.00000000e+00,3.57000000e-01
5.20000000e-12,7.70842571e-01,0.00000000e+00,0.00000000e+00,3.64000000e-01
5.30000000e-12,7.66320429e-01,0.00000000e+00,0.00000000e+00,3.71000000e-01
5.40000000e-12,7.61798287e-01,0.00000000e+00,0.00000000e+00,3.78000000e-01
5.50000000e-12,7.57276144e-01,0.00000000e+00,0.00000000e+00,3.85000000e-01
5.60000000e-12,7.52103799e-01,0.00000000e+00,0.00000000e+00,3.92000000e-01
5.70000000e-12,7.44362829e-01,0.00000000e+00,0.00000000e+00,3.99000000e-01
5.80000000e-12,7.36621859e-01,0.00000000e+00,0.00000000e+00,4.06000000e-01
5.90000000e-12,7.28880890e-01,0.00000000e+00,0.00000000e+00,4.13000000e-01
6.00000000e-12,7.20992457e-01,0.00000000e+00,0.00000000e+00,4.20000000e-01
6.10000000e-12,7.10326245e-01,0.00000000e+00,0.00000000e+00,4.27000000e-01
6.20000000e-12,6.98169158e-01,0.00000000e+00,0.00000000e+00,4.34000000e-01
6.30000000e-12,6.84528141e-01,0.00000000e+00,0.00000000e+00,4.41000000e-01
6.40000000e-12,6.69211802e-01,0.00000000e+00,0.00000000e+00,4.48000000e-01
6.50005668e-12,6.52146000e-01,0.00000000e+00,0.00000000e+00,4.55003968e-01
6.60000000e-12,6.32851994e-01,0.00000000e+00,0.00000000e+00,4.62000000e-01
6.70000000e-12,6.12032452e-01,0.00000000e+00,0.00000000e+00,4.69000000e-01
6.80000000e-12,5.89769105e-01,0.00000000e+00,0.00000000e+00,4.76000000e-01
6.90000000e-12,5.66126129e-01,0.00000000e+00,0.00000000e+00,4.83000000e-01
7.00000000e-12,5.41063886e-01,0.00000000e+00,0.00000000e+00,4.90000000e-01
7.10000000e-12,5.14404495e-01,0.00000000e+00,0.00000000e+00,4.97000000e-01
7.20000000e-12,4.86569760e-01,0.00000000e+00,0.00000000e+00,5.04000000e-01
7.30000000e-12,4.57615926e-01,0.00000000e+00,0.00000000e+00,5.11000000e-01
7.40000000e-12,4.27606063e-01,0.00000000e+00,0.00000000e+00,5.18000000e-01
7.50000000e-12,3.96487543e-01,0.00000000e+00,0.00000000e+00,5.25000000e-01
7.60000000e-12,3.64411007e-01,0.00000000e+00,0.00000000e+00,5.32000000e-01
7.70000000e-12,3.31789299e-01,0.00000000e+00,0.00000000e+00,5.39000000e-01
7.80000000e-12,2.98912323e-01,0.00000000e+00,0.00000000e+00,5.46000000e-01
7.90000000e-12,2.66202234e-01,0.00000000e+00,0.00000000e+00,5.53000000e-01
8.00000000e-12,2.35042663e-01,0.00000000e+00,0.00000000e+00,5.60000000e-01
8.10000000e-12,2.03883091e-01,0.00000000e+00,0.00000000e+00,5.67000000e-01
8.20000000e-12,1.74406589e-01,0.00000000e+00,0.00000000e+00,5.74000000e-01
8.30000000e-12,1.48104325e-01,0.00000000e+00,0.00000000e+00,5.81000000e-01
8.40000000e-12,1.24736735e-01,0.00000000e+00,0.00000000e+00,5.88000000e-01
8.50000000e-12,1.04744174e-01,0.00000000e+00,0.00000000e+00,5.95000000e-01
8.60000000e-12,8.77603148e-02,0.00000000e+00,0.00000000e+00,6.02000000e-01
8.70000000e-12,7.35749392e-02,0.00000000e+00,0.00000000e+00,6.09000000e-01
8.80000000e-12,6.19007070e-02,0.00000000e+00,0.00000000e+00,6.16000000e-01
8.89842790e-12,5.25592143e-02,0.00000000e+00,0.00000000e+00,6.22889953e-01
9.00000000e-12,4.54242906e-02,0.00000000e+00,0.00000000e+00,6.30000000e-01
9.10000000e-12,3.91720038e-02,0.00000000e+00,0.00000000e+00,6.37000000e-01
9.20000000e-12,3.44382050e-02,0.00000000e+00,0.00000000e+00,6.44000000e-01
9.30000000e-12,3.07487635e-02,0.00000000e+00,0.00000000e+00,6.51000000e-01
9.40201257e-12,2.75376013e-02,0.00000000e+00,0.00000000e+00,6.58140880e-01
9.50000000e-12,2.55000011e-02,0.00000000e+00,0.00000000e+00,6.65000000e-01
9.60000000e-12,2.36929944e-02,0.00000000e+00,0.00000000e+00,6.72000000e-01
9.70000000e-12,2.25178962e-02,0.00000000e+00,0.00000000e+00,6.79000000e-01
9.80000000e-12,2.13427980e-02,0.00000000e+00,0.00000000e+00,6.86000000e-01
9.90000000e-12,2.01676998e-02,0.00000000e+00,0.00000000e+00,6.93000000e-01
1.00000000e-11,1.95058337e-02,0.00000000e+00,0.00000000e+00,7.00000000e-01
1.01000000e-11,1.48271257e-02,0.00000000e+00,0.00000000e+00,7.00000000e-01
1.02000000e-11,1.12490454e-02,0.00000000e+00,0.00000000e+00,7.00000000e-01
1.03000000e-11,8.35128125e-03,0.00000000e+00,0.00000000e+00,7.00000000e-01
1.04028677e-11,6.10566021e-03,0.00000000e+00,0.00000000e+00,7.00000000e-01
1.05000000e-11,4.67203172e-03,0.00000000e+00,0.00000000e+00,7.00000000e-01
1.06000000e-11,3.58447403e-03,0.00000000e+00,0.00000000e+00,7.00000000e-01
1.07000000e-11,2.72656275e-03,0.00000000e+00,0.00000000e+00,7.00000000e-01
1.08000000e-11,1.86865148e-03,0.00000000e+00,0.00000000e+00,7.00000000e-01
1.09000000e-11,1.54050708e-03,0.00000000e+00,0.00000000e+00,7.00000000e-01
1.10000000e-11,1.24459608e-03,0.00000000e+00,0.00000000e+00,7.00000000e-01
1.11000000e-11,9.48685068e-04,0.00000000e+00,0.00000000e+00,7.00000000e-01
1.12000000e-11,6.52774061e-04,0.00000000e+00,0.00000000e+00,7.00000000e-01
1.13000000e-11,3.56863053e-04,0.00000000e+00,0.00000000e+00,7.00000000e-01
1.14000000e-11,2.15093001e-04,0.00000000e+00,0.00000000e+00,7.00000000e-01
1.15000000e-11,1.89095477e-04,0.00000000e+00,0.00000000e+00,7.00000000e-01
1.16000000e-11,1.63097953e-04,0.00000000e+00,0.00000000e+00,7.00000000e-01
1.17000000e-11,1.37100430e-04,0.00000000e+00,0.00000000e+00,7.00000000e-01
1.18000000e-11,1.11102906e-04,0.00000000e+00,0.00000000e+00,7.00000000e-01
1.19000000e-11,8.51053820e-05,0.00000000e+00,0.00000000e+00,7.00000000e-01
1.20000000e-11,5.91078583e-05,0.00000000e+00,0.00000000e+00,7.00000000e-01
1.21000000e-11,3.31103345e-05,0.00000000e+00,0.00000000e+00,7.00000000e-01
1.22000000e-11,7.11281080e-06,0.00000000e+00,0.00000000e+00,7.00000000e-01
1.23000000e-11,-1.88847129e-05,0.00000000e+00,0.00000000e+00,7.00000000e-01
1.24000000e-11,-4.48822367e-05,0.00000000e+00,0.00000000e+00,7.00000000e-01
1.25000000e-11,-4.46986776e-05,0.00000000e+00,0.00000000e+00,7.00000000e-01
1.26000000e-11,-3.90740824e-05,0.00000000e+00,0.00000000e+00,7.00000000e-01
1.27000000e-11,-3.34494872e-05,0.00000000e+00,0.00000000e+00,7.00000000e-01
1.28000000e-11,-2.78248919e-05,0.00000000e+00,0.00000000e+00,7.00000000e-01
1.29000000e-11,-2.22002967e-05,0.00000000e+00,0.00000000e+00,7.00000000e-01
1.30000000e-11,-1.65757015e-05,0.00000000e+00,0.00000000e+00,7.00000000e-01
1.31000000e-11,-1.09511062e-05,0.00000000e+00,0.00000000e+00,7.00000000e-01
1.32000000e-11,-5.32651100e-06,0.00000000e+00,0.00000000e+00,7.00000000e-01
1.33000000e-11,2.98084229e-07,0.00000000e+00,0.00000000e+00,7.00000000e-01
1.34000000e-11,5.92267946e-06,0.00000000e+00,0.00000000e+00,7.00000000e-01
1.35000000e-11,1.09669908e-05,0.00000000e+00,0.00000000e+00,7.00000000e-01
1.36000000e-11,9.74829943e-06,0.00000000e+00,0.00000000e+00,7.00000000e-01
1.37000000e-11,8.52960807e-06,0.00000000e+00,0.00000000e+00,7.00000000e-01
1.38000000e-11,7.31091670e-06,0.00000000e+00,0.00000000e+00,7.00000000e-01
1.39000000e-11,6.09222534e-06,0.00000000e+00,0.00000000e+00,7.00000000e-01
1.40000000e-11,4.87353398e-06,0.00000000e+00,0.00000000e+00,7.00000000e-01
1.41000000e-11,3.65484261e-06,0.00000000e+00,0.00000000e+00,7.00000000e-01
1.42000000e-11,2.43615125e-06,0.00000000e+00,0.00000000e+00,7.00000000e-01
1.43000000e-11,1.21745989e-06,0.00000000e+00,0.00000000e+00,7.00000000e-01
1.44000000e-11,-1.23147770e-09,0.00000000e+00,0.00000000e+00,7.00000000e-01
1.45000000e-11,-1.21992284e-06,0.00000000e+00,0.00000000e+00,7.00000000e-01
1.46000000e-11,-1.96624706e-06,0.00000000e+00,0.00000000e+00,7.00000000e-01
1.47000000e-11,-1.80235897e-06,0.00000000e+00,0.00000000e+00,7.00000000e-01
1.48000000e-11,-1.63847088e-06,0.00000000e+00,0.00000000e+00,7.00000000e-01
1.49000000e-11,-1.47458279e-06,0.00000000e+00,0.00000000e+00,7.00000000e-01
1.50000000e-11,-1.31069469e-06,0.00000000e+00,0.00000000e+00,7.00000000e-01
1.51000000e-11,-1.14680660e-06,0.00000000e+00,0.00000000e+00,7.00000000e-01
1.52000000e-11,-9.82918510e-07,0.00000000e+00,0.00000000e+00,7.00000000e-01
1.53000000e-11,-8.19030418e-07,0.00000000e+00,0.00000000e+00,7.00000000e-01
1.54000000e-11,-6.55142326e-07,0.00000000e+00,0.00000000e+00,7.00000000e-01
1.55000000e-11,-4.91254234e-07,0.00000000e+00,0.00000000e+00,7.00000000e-01
1.56000000e-11,-3.27366142e-07,0.00000000e+00,0.00000000e+00,7.00000000e-01
1.57000000e-11,-1.63478050e-07,0.00000000e+00,0.00000000e+00,7.00000000e-01
1.58000000e-11,4.10041552e-10,0.00000000e+00,0.00000000e+00,7.00000000e-01
1.59000000e-11,1.64298133e-07,0.00000000e+00,0.00000000e+00,7.00000000e-01
1.60000000e-11,3.28186225e-07,0.00000000e+00,0.00000000e+00,7.00000000e-01
1.61000000e-11,4.92074317e-07,0.00000000e+00,0.00000000e+00,7.00000000e-01
1.62000000e-11,6.55962409e-07,0.00000000e+00,0.00000000e+00,7.00000000e-01
1.63000000e-11,8.19850501e-07,0.00000000e+00,0.00000000e+00,7.00000000e-01
1.64000000e-11,9.83738593e-07,0.00000000e+00,0.00000000e+00,7.00000000e-01
1.65000000e-11,1.14762668e-06,0.00000000e+00,0.00000000e+00,7.00000000e-01
1.66000000e-11,1.31151478e-06,0.00000000e+00,0.00000000e+00,7.00000000e-01
1.67000000e-11,1.47540287e-06,0.00000000e+00,0.00000000e+00,7.00000000e-01
1.68000000e-11,1.42716693e-06,0.00000000e+00,0.00000000e+00,7.00000000e-01
1.69000000e-11,1.34306610e-06,0.00000000e+00,0.00000000e+00,7.00000000e-01
1.70000000e-11,1.25896528e-06,0.00000000e+00,0.00000000e+00,7.00000000e-01
1.71000000e-11,1.17486446e-06,0.00000000e+00,0.00000000e+00,7.00000000e-01
1.72000000e-11,1.09076364e-06,0.00000000e+00,0.00000000e+00,7.00000000e-01
1.73000000e-11,1.00666281e-06,0.00000000e+00,0.00000000e+00,7.00000000e-01
1.74000000e-11,9.22561991e-07,0.00000000e+00,0.00000000e+00,7.00000000e-01
1.75000000e-11,8.38461168e-07,0.00000000e+00,0.00000000e+00,7.00000000e-01
1.76000000e-11,7.54360346e-07,0.00000000e+00,0.00000000e+00,7.00000000e-01
1.77000000e-11,6.70259523e-07,0.00000000e+00,0.00000000e+00,7.00000000e-01
1.78000000e-11,5.86158700e-07,0.00000000e+00,0.00000000e+00,7.00000000e-01
1.79000000e-11,5.02057878e-07,0.00000000e+00,0.00000000e+00,7.00000000e-01
1.80000000e-11,4.17957055e-07,0.00000000e+00,0.00000000e+00,7.00000000e-01
1.81000000e-11,3.33856233e-07,0.00000000e+00,0.00000000e+00,7.00000000e-01
1.82000000e-11,2.49755410e-07,0.00000000e+00,0.00000000e+00,7.00000000e-01
1.83000000e-11,1.65654588e-07,0.00000000e+00,0.00000000e+00,7.00000000e-01
1.84000000e-11,8.15537651e-08,0.00000000e+00,0.00000000e+00,7.00000000e-01
1.85000000e-11,-2.54705747e-09,0.00000000e+00,0.00000000e+00,7.00000000e-01
1.86000000e-11,-8.66478800e-08,0.00000000e+00,0.00000000e+00,7.00000000e-01
1.87000000e-11,-1.70748703e-07,0.00000000e+00,0.00000000e+00,7.00000000e-01
1.88000000e-11,-2.54849525e-07,0.00000000e+00,0.00000000e+00,7.00000000e-01
1.89000000e-11,-2.98845227e-07,0.00000000e+00,0.00000000e+00,7.00000000e-01
1.90000000e-11,-2.74288868e-07,0.00000000e+00,0.00000000e+00,7.00000000e-01
1.91000000e-11,-2.49732510e-07,0.00000000e+00,0.00000000e+00,7.00000000e-01
1.92000000e-11,-2.25176151e-07,0.00000000e+00,0.00000000e+00,7.00000000e-01
1.93000000e-11,-2.00619793e-07,0.00000000e+00,0.00000000e+00,7.00000000e-01
1.94000000e-11,-1.76063435e-07,0.00000000e+00,0.00000000e+00,7.00000000e-01
1.95000000e-11,-1.51507076e-07,0.00000000e+00,0.00000000e+00,7.00000000e-01
1.96000000e-11,-1.26950718e-07,0.00000000e+00,0.00000000e+00,7.00000000e-01
1.97000000e-11,-1.02394359e-07,0.00000000e+00,0.00000000e+00,7.00000000e-01
1.98000000e-11,-7.78380008e-08,0.00000000e+00,0.00000000e+00,7.00000000e-01
1.99000000e-11,-5.32816424e-08,0.00000000e+00,0.00000000e+00,7.00000000e-01
2.00000000e-11,-2.87252840e-08,0.00000000e+00,0.00000000e+00,7.00000000e-01
2.01000000e-11,-4.16892559e-09,0.00000000e+00,0.00000000e+00,7.00000000e-01
2.02000000e-11,2.03874328e-08,0.00000000e+00,0.00000000e+00,7.00000000e-01
2.03000000e-11,4.49437913e-08,0.00000000e+00,0.00000000e+00,7.00000000e-01
2.04000000e-11,6.95001497e-08,0.00000000e+00,0.00000000e+00,7.00000000e-01
2.05000000e-11,9.40565081e-08,0.00000000e+00,0.00000000e+00,7.00000000e-01
2.06000000e-11,1.18612867e-07,0.00000000e+00,0.00000000e+00,7.00000000e-01
2.07000000e-11,1.43169225e-07,0.00000000e+00,0.00000000e+00,7.00000000e-01
2.08000000e-11,1.67725583e-07,0.00000000e+00,0.00000000e+00,7.00000000e-01
2.09000000e-11,1.92281942e-07,0.00000000e+00,0.00000000e+00,7.00000000e-01
2.10000000e-11,2.16838300e-07,0.00000000e+00,0.00000000e+00,7.00000000e-01
2.11000000e-11,2.41394659e-07,0.00000000e+00,0.00000000e+00,7.00000000e-01
2.12000000e-11,2.65951017e-07,0.00000000e+00,0.00000000e+00,7.00000000e-01
2.13000000e-11,2.90507375e-07,0.00000000e+00,0.00000000e+00,7.00000000e-01
2.14000000e-11,3.15063734e-07,0.00000000e+00,0.00000000e+00,7.00000000e-01
2.15000000e-11,3.39620092e-07,0.00000000e+00,0.00000000e+00,7.00000000e-01
2.16000000e-11,3.64176451e-07,0.00000000e+00,0.00000000e+00,7.00000000e-01
2.17000000e-11,3.88732809e-07,0.00000000e+00,0.00000000e+00,7.00000000e-01
2.18000000e-11,4.13289168e-07,0.00000000e+00,0.00000000e+00,7.00000000e-01
2.19000000e-11,4.37845526e-07,0.00000000e+00,0.00000000e+00,7.00000000e-01
2.20000000e-11,4.62401884e-07,0.00000000e+00,0.00000000e+00,7.00000000e-01
2.21000000e-11,4.86958243e-07,0.00000000e+00,0.00000000e+00,7.00000000e-01
2.22000000e-11,5.11514601e-07,0.00000000e+00,0.00000000e+00,7.00000000e-01
2.23000000e-11,5.36070960e-07,0.00000000e+00,0.00000000e+00,7.00000000e-01
2.24000000e-11,5.60627318e-07,0.00000000e+00,0.00000000e+00,7.00000000e-01
2.25000000e-11,5.85183676e-07,0.00000000e+00,0.00000000e+00,7.00000000e-01
2.26000000e-11,6.09740035e-07,0.00000000e+00,0.00000000e+00,7.00000000e-01
2.27000000e-11,6.34296393e-07,0.00000000e+00,0.00000000e+00,7.00000000e-01
2.28000000e-11,6.58852752e-07,0.00000000e+00,0.00000000e+00,7.00000000e-01
2.29000000e-11,6.83409110e-07,0.00000000e+00,0.00000000e+00,7.00000000e-01
2.30000000e-11,7.07965469e-07,0.00000000e+00,0.00000000e+00,7.00000000e-01
2.31000000e-11,7.32521827e-07,0.00000000e+00,0.00000000e+00,7.00000000e-01
2.32000000e-11,7.43560127e-07,0.00000000e+00,0.00000000e+00,7.00000000e-01
2.33000000e-11,7.34026383e-07,0.00000000e+00,0.00000000e+00,7.00000000e-01
2.34000000e-11,7.24492639e-07,0.00000000e+00,0.00000000e+00,7.00000000e-01
2.35000000e-11,7.14958895e-07,0.00000000e+00,0.00000000e+00,7.00000000e-01
2.36000000e-11,7.05425150e-07,0.00000000e+00,0.00000000e+00,7.00000000e-01
2.37000000e-11,6.95891406e-07,0.00000000e+00,0.00000000e+00,7.00000000e-01
2.38000000e-11,6.86357662e-07,0.00000000e+00,0.00000000e+00,7.00000000e-01
2.39000000e-11,6.76823918e-07,0.00000000e+00,0.00000000e+00,7.00000000e-01
2.40000000e-11,6.67290174e-07,0.00000000e+00,0.00000000e+00,7.00000000e-01
2.41000000e-11,6.57756429e-07,0.00000000e+00,0.00000000e+00,7.00000000e-01
2.42000000e-11,6.48222685e-07,0.00000000e+00,0.00000000e+00,7.00000000e-01
2.43000000e-11,6.38688941e-07,0.00000000e+00,0.00000000e+00,7.00000000e-01
2.44000000e-11,6.29155197e-07,0.00000000e+00,0.00000000e+00,7.00000000e-01
2.45000000e-11,6.19621452e-07,0.00000000e+00,0.00000000e+00,7.00000000e-01
2.46000000e-11,6.10087708e-07,0.00000000e+00,0.00000000e+00,7.00000000e-01
2.47000000e-11,6.00553964e-07,0.00000000e+00,0.00000000e+00,7.00000000e-01
2.48000000e-11,5.91020220e-07,0.00000000e+00,0.00000000e+00,7.00000000e-01
2.49000000e-11,5.81486475e-07,0.00000000e+00,0.00000000e+00,7.00000000e-01
2.50000000e-11,5.71952731e-07,0.00000000e+00,0.00000000e+00,7.00000000e-01
2.51000000e-11,5.62418987e-07,0.00000000e+00,0.00000000e+00,7.00000000e-01
2.52000000e-11,5.52885243e-07,0.00000000e+00,0.00000000e+00,7.00000000e-01
2.53000000e-11,5.43351499e-07,0.00000000e+00,0.00000000e+00,7.00000000e-01
2.54000000e-11,5.33817754e-07,0.00000000e+00,0.00000000e+00,7.00000000e-01
2.55000000e-11,5.24284010e-07,0.00000000e+00,0.00000000e+00,7.00000000e-01
2.56000000e-11,5.14750266e-07,0.00000000e+00,0.00000000e+00,7.00000000e-01
2.57000000e-11,5.05216522e-07,0.00000000e+00,0.00000000e+00,7.00000000e-01
2.58000000e-11,4.95682777e-07,0.00000000e+00,0.00000000e+00,7.00000000e-01
2.59000000e-11,4.86149033e-07,0.00000000e+00,0.00000000e+00,7.00000000e-01
2.60000000e-11,4.76615289e-07,0.00000000e+00,0.00000000e+00,7.00000000e-01
2.61000000e-11,4.67081545e-07,0.00000000e+00,0.00000000e+00,7.00000000e-01
2.62000000e-11,4.57547800e-07,0.00000000e+00,0.00000000e+00,7.00000000e-01
2.63000000e-11,4.48014056e-07,0.00000000e+00,0.00000000e+00,7.00000000e-01
2.64000000e-11,4.38480312e-07,0.00000000e+00,0.00000000e+00,7.00000000e-01
