TIME,V(OUT),V(IN1),V(IN2)
0.00000000e+00,6.99999735e-01,0.00000000e+00,0.00000000e+00
1.00000000e-15,7.00047934e-01,7.00000000e-05,0.00000000e+00
3.00000000e-15,7.00144181e-01,2.10000000e-04,0.00000000e+00
7.00000000e-15,7.00336324e-01,4.90000000e-04,0.00000000e+00
1.50000000e-14,7.00718704e-01,1.05000000e-03,0.00000000e+00
3.10000000e-14,7.01475931e-01,2.17000000e-03,0.00000000e+00
6.30000000e-14,7.02960900e-01,4.41000000e-03,0.00000000e+00
1.27000000e-13,7.05817947e-01,8.89000000e-03,0.00000000e+00
2.55000000e-13,7.11117863e-01,1.78500000e-02,0.00000000e+00
5.11000000e-13,7.20315959e-01,3.57700000e-02,0.00000000e+00
7.67000000e-13,7.27974529e-01,5.36900000e-02,0.00000000e+00
1.02300000e-12,7.34416164e-01,7.16100000e-02,0.00000000e+00
1.53500000e-12,7.44442939e-01,1.07450000e-01,0.00000000e+00
2.55900000e-12,7.56098824e-01,1.79130000e-01,0.00000000e+00
3.58300000e-12,7.61338407e-01,2.50810000e-01,0.00000000e+00
4.60700000e-12,7.63707107e-01,3.22490000e-01,0.00000000e+00
6.65500000e-12,7.65388100e-01,4.65850000e-01,0.00000000e+00
8.70300000e-12,7.65602323e-01,6.09210000e-01,0.00000000e+00
1.00000000e-11,7.65556683e-01,7.00000000e-01,0.00000000e+00
1.01953573e-11,7.59376835e-01,7.00000000e-01,0.00000000e+00
1.03534203e-11,7.54846901e-01,7.00000000e-01,0.00000000e+00
1.05114832e-11,7.50523905e-01,7.00000000e-01,0.00000000e+00
1.08276092e-11,7.43040034e-01,7.00000000e-01,0.00000000e+00
1.11437351e-11,7.36849449e-01,7.00000000e-01,0.00000000e+00
1.17759870e-11,7.27242845e-01,7.00000000e-01,0.00000000e+00
1.30404908e-11,7.15091090e-01,7.00000000e-01,0.00000000e+00
1.43049946e-11,7.08583920e-01,7.00000000e-01,0.00000000e+00
1.55694984e-11,7.04894808e-01,7.00000000e-01,0.00000000e+00
1.80985060e-11,7.01329403e-01,7.00000000e-01,0.00000000e+00
2.06275135e-11,7.00163384e-01,7.00000000e-01,0.00000000e+00
2.56855287e-11,6.99585612e-01,7.00000000e-01,0.00000000e+00
3.07435438e-11,6.99601798e-01,7.00000000e-01,0.00000000e+00
4.07435438e-11,6.99646189e-01,7.00000000e-01,0.00000000e+00
5.07435438e-11,6.99667372e-01,7.00000000e-01,0.00000000e+00
6.07435438e-11,6.99696557e-01,7.00000000e-01,0.00000000e+00
7.07435438e-11,6.99717838e-01,7.00000000e-01,0.00000000e+00
8.07435438e-11,6.99737385e-01,7.00000000e-01,0.00000000e+00
9.07435438e-11,6.99754065e-01,7.00000000e-01,0.00000000e+00
1.00000000e-10,6.99767824e-01,7.00000000e-01,0.00000000e+00
1.00062500e-10,7.01956956e-01,7.00000000e-01,4.37500000e-03
1.00187500e-10,7.06109527e-01,7.00000000e-01,1.31250000e-02
1.00437500e-10,7.13937865e-01,7.00000000e-01,3.06250000e-02
1.00937500e-10,7.27933993e-01,7.00000000e-01,6.56250000e-02
1.01937500e-10,7.52734415e-01,7.00000000e-01,1.35625000e-01
1.03937500e-10,7.99204259e-01,7.00000000e-01,2.75625000e-01
1.05937500e-10,8.45855833e-01,7.00000000e-01,4.15625000e-01
1.07937500e-10,8.92521665e-01,7.00000000e-01,5.55625000e-01
1.08907876e-10,9.15163646e-01,7.00000000e-01,6.23551352e-01
1.09878253e-10,9.37805599e-01,7.00000000e-01,6.91477703e-01
1.10000000e-10,9.40646343e-01,7.00000000e-01,7.00000000e-01
1.10087334e-10,9.40646328e-01,7.00000000e-01,7.00000000e-01
1.10164782e-10,9.40646314e-01,7.00000000e-01,7.00000000e-01
1.10319680e-10,9.40646287e-01,7.00000000e-01,7.00000000e-01
1.10629474e-10,9.40646231e-01,7.00000000e-01,7.00000000e-01
1.11249063e-10,9.40646120e-01,7.00000000e-01,7.00000000e-01
1.12488240e-10,9.40645869e-01,7.00000000e-01,7.00000000e-01
1.14966595e-10,9.40641034e-01,7.00000000e-01,7.00000000e-01
1.17444950e-10,9.40407700e-01,7.00000000e-01,7.00000000e-01
1.19923305e-10,9.34649257e-01,7.00000000e-01,7.00000000e-01
1.20219672e-10,9.32928243e-01,7.00000000e-01,7.00000000e-01
1.20516038e-10,9.30974858e-01,7.00000000e-01,7.00000000e-01
1.21108770e-10,9.25487779e-01,7.00000000e-01,7.00000000e-01
1.21701503e-10,9.17903497e-01,7.00000000e-01,7.00000000e-01
1.22294236e-10,9.08516191e-01,7.00000000e-01,7.00000000e-01
1.22886968e-10,8.97789438e-01,7.00000000e-01,7.00000000e-01
1.24072433e-10,8.74069423e-01,7.00000000e-01,7.00000000e-01
1.26443363e-10,8.23195069e-01,7.00000000e-01,7.00000000e-01
1.28814294e-10,7.71368363e-01,7.00000000e-01,7.00000000e-01
1.31185224e-10,7.19773398e-01,7.00000000e-01,7.00000000e-01
1.35927084e-10,6.17180812e-01,7.00000000e-01,7.00000000e-01
1.45410805e-10,4.14652625e-01,7.00000000e-01,7.00000000e-01
1.54894526e-10,2.16851571e-01,7.00000000e-01,7.00000000e-01
1.59093020e-10,1.34518222e-01,7.00000000e-01,7.00000000e-01
1.60635547e-10,1.06750639e-01,7.00000000e-01,7.00000000e-01
1.62178074e-10,8.18098589e-02,7.00000000e-01,7.00000000e-01
1.63720601e-10,6.19840014e-02,7.00000000e-01,7.00000000e-01
1.65263128e-10,4.66418271e-02,7.00000000e-01,7.00000000e-01
1.66805655e-10,3.46948700e-02,7.00000000e-01,7.00000000e-01
1.68348182e-10,2.54248326e-02,7.00000000e-01,7.00000000e-01
1.69890709e-10,1.83698473e-02,7.00000000e-01,7.00000000e-01
1.71433237e-10,1.31146862e-02,7.00000000e-01,7.00000000e-01
1.74518291e-10,6.40691764e-03,7.00000000e-01,7.00000000e-01
1.80688399e-10,1.09801219e-03,7.00000000e-01,7.00000000e-01
1.93028616e-10,-2.03476724e-04,7.00000000e-01,7.00000000e-01
1.95805165e-10,-1.22309869e-04,7.00000000e-01,7.00000000e-01
1.97824259e-10,-8.25184421e-05,7.00000000e-01,7.00000000e-01
1.99282011e-10,-6.12062056e-05,7.00000000e-01,7.00000000e-01
1.99566556e-10,-5.73106221e-05,7.00000000e-01,7.00000000e-01
2.00135646e-10,8.90190440e-04,7.00000000e-01,7.00000000e-01
2.00704735e-10,5.81415681e-03,7.00000000e-01,7.00000000e-01
2.01273824e-10,1.52823420e-02,7.00000000e-01,7.00000000e-01
2.01842914e-10,2.73653947e-02,7.00000000e-01,7.00000000e-01
2.02981093e-10,5.75484315e-02,7.00000000e-01,7.00000000e-01
2.04119272e-10,9.65433285e-02,7.00000000e-01,7.00000000e-01
2.05257451e-10,1.45366646e-01,7.00000000e-01,7.00000000e-01
2.06395629e-10,2.01846949e-01,7.00000000e-01,7.00000000e-01
2.07533808e-10,2.62586636e-01,7.00000000e-01,7.00000000e-01
2.09810166e-10,3.88878344e-01,7.00000000e-01,7.00000000e-01
2.12086524e-10,5.17442266e-01,7.00000000e-01,7.00000000e-01
2.13463721e-10,5.95357359e-01,7.00000000e-01,7.00000000e-01
2.14708520e-10,6.65713815e-01,7.00000000e-01,7.00000000e-01
2.14943310e-10,6.78981695e-01,7.00000000e-01,7.00000000e-01
2.15412890e-10,7.03697451e-01,7.00000000e-01,7.00000000e-01
2.15882470e-10,7.24744545e-01,7.00000000e-01,7.00000000e-01
2.16352050e-10,7.42303107e-01,7.00000000e-01,7.00000000e-01
2.16821630e-10,7.56765870e-01,7.00000000e-01,7.00000000e-01
2.17291210e-10,7.68479944e-01,7.00000000e-01,7.00000000e-01
2.17760790e-10,7.77752670e-01,7.00000000e-01,7.00000000e-01
2.18230370e-10,7.84856530e-01,7.00000000e-01,7.00000000e-01
2.19169530e-10,7.93598693e-01,7.00000000e-01,7.00000000e-01
2.20108690e-10,7.96211791e-01,7.00000000e-01,7.00000000e-01
2.21047850e-10,7.93985505e-01,7.00000000e-01,7.00000000e-01
2.21987009e-10,7.87938934e-01,7.00000000e-01,7.00000000e-01
2.22926169e-10,7.78877744e-01,7.00000000e-01,7.00000000e-01
2.23865329e-10,7.67439023e-01,7.00000000e-01,7.00000000e-01
2.25743649e-10,7.39514991e-01,7.00000000e-01,7.00000000e-01
2.29500289e-10,6.71892613e-01,7.00000000e-01,7.00000000e-01
2.33256928e-10,5.96262019e-01,7.00000000e-01,7.00000000e-01
2.37013568e-10,5.17837877e-01,7.00000000e-01,7.00000000e-01
2.40770207e-10,4.38690750e-01,7.00000000e-01,7.00000000e-01
2.48283487e-10,2.81372099e-01,7.00000000e-01,7.00000000e-01
2.55796766e-10,1.30418210e-01,7.00000000e-01,7.00000000e-01
2.56497835e-10,1.17423538e-01,7.00000000e-01,7.00000000e-01
2.57899974e-10,9.31988924e-02,7.00000000e-01,7.00000000e-01
2.60704253e-10,5.65556870e-02,7.00000000e-01,7.00000000e-01
2.63151791e-10,3.56964820e-02,7.00000000e-01,7.00000000e-01
2.65599330e-10,2.16933124e-02,7.00000000e-01,7.00000000e-01
2.68046868e-10,1.27101416e-02,7.00000000e-01,7.00000000e-01
2.70494407e-10,7.25923726e-03,7.00000000e-01,7.00000000e-01
2.72941946e-10,4.07458253e-03,7.00000000e-01,7.00000000e-01
2.77837023e-10,1.11550973e-03,7.00000000e-01,7.00000000e-01
2.82732100e-10,2.96708041e-04,7.00000000e-01,7.00000000e-01
2.92522255e-10,-2.22896591e-05,7.00000000e-01,7.00000000e-01
3.02312409e-10,1.76293732e-06,7.00000000e-01,7.00000000e-01
3.10000000e-10,2.45126371e-07,7.00000000e-01,7.00000000e-01
3.10062500e-10,-3.28903622e-03,6.95625000e-01,7.00000000e-01
3.10187500e-10,-9.64534792e-03,6.86875000e-01,7.00000000e-01
3.10312500e-10,-1.58907057e-02,6.78125000e-01,7.00000000e-01
3.10562500e-10,-2.77830290e-02,6.60625000e-01,7.00000000e-01
3.11062500e-10,-4.95185429e-02,6.25625000e-01,7.00000000e-01
3.11562500e-10,-6.91756792e-02,5.90625000e-01,7.00000000e-01
3.12062500e-10,-8.79310605e-02,5.55625000e-01,7.00000000e-01
3.12562500e-10,-1.07006918e-01,5.20625000e-01,7.00000000e-01
3.13062500e-10,-1.27085149e-01,4.85625000e-01,7.00000000e-01
3.14062500e-10,-1.69801597e-01,4.15625000e-01,7.00000000e-01
3.15062500e-10,-2.14752786e-01,3.45625000e-01,7.00000000e-01
3.16062500e-10,-2.60679599e-01,2.75625000e-01,7.00000000e-01
3.18062500e-10,-3.52961945e-01,1.35625000e-01,7.00000000e-01
3.19112266e-10,-3.95726644e-01,6.21413786e-02,7.00000000e-01
3.19438914e-10,-4.07871686e-01,3.92760343e-02,7.00000000e-01
3.19765562e-10,-4.18856979e-01,1.64106899e-02,7.00000000e-01
3.20000000e-10,-4.24520359e-01,-1.22124533e-15,7.00000000e-01
3.20065330e-10,-4.22088917e-01,0.00000000e+00,7.00000000e-01
3.20124126e-10,-4.19903199e-01,0.00000000e+00,7.00000000e-01
3.20241719e-10,-4.15536894e-01,0.00000000e+00,7.00000000e-01
3.20476906e-10,-4.06834989e-01,0.00000000e+00,7.00000000e-01
3.20947279e-10,-3.89552550e-01,0.00000000e+00,7.00000000e-01
3.21888024e-10,-3.55462905e-01,0.00000000e+00,7.00000000e-01
3.23769515e-10,-2.89112882e-01,0.00000000e+00,7.00000000e-01
3.25651007e-10,-2.25097045e-01,0.00000000e+00,7.00000000e-01
3.27532498e-10,-1.63285761e-01,0.00000000e+00,7.00000000e-01
3.29413989e-10,-1.03560005e-01,0.00000000e+00,7.00000000e-01
3.31295480e-10,-4.58100506e-02,0.00000000e+00,7.00000000e-01
3.35058463e-10,6.42028173e-02,0.00000000e+00,7.00000000e-01
3.38821445e-10,1.67417982e-01,0.00000000e+00,7.00000000e-01
3.42584427e-10,2.64439975e-01,0.00000000e+00,7.00000000e-01
3.46347410e-10,3.55756425e-01,0.00000000e+00,7.00000000e-01
3.50110392e-10,4.41697609e-01,0.00000000e+00,7.00000000e-01
3.53873374e-10,5.22239909e-01,0.00000000e+00,7.00000000e-01
3.57636357e-10,5.95895157e-01,0.00000000e+00,7.00000000e-01
3.61399339e-10,6.54528669e-01,0.00000000e+00,7.00000000e-01
3.64703552e-10,6.84231933e-01,0.00000000e+00,7.00000000e-01
3.67367845e-10,6.94338962e-01,0.00000000e+00,7.00000000e-01
3.70032139e-10,6.98116306e-01,0.00000000e+00,7.00000000e-01
3.75360727e-10,7.00018017e-01,0.00000000e+00,7.00000000e-01
3.80156456e-10,6.93591271e-01,0.00000000e+00,7.00000000e-01
3.80468406e-10,6.90285269e-01,0.00000000e+00,7.00000000e-01
3.80780357e-10,6.85956762e-01,0.00000000e+00,7.00000000e-01
3.81404257e-10,6.72328985e-01,0.00000000e+00,7.00000000e-01
3.82028158e-10,6.53495638e-01,0.00000000e+00,7.00000000e-01
3.82652059e-10,6.30565240e-01,0.00000000e+00,7.00000000e-01
3.83275960e-10,6.04298928e-01,0.00000000e+00,7.00000000e-01
3.83899861e-10,5.75485353e-01,0.00000000e+00,7.00000000e-01
3.85147662e-10,5.13117586e-01,0.00000000e+00,7.00000000e-01
3.87643265e-10,3.80555697e-01,0.00000000e+00,7.00000000e-01
3.90138869e-10,2.46382701e-01,0.00000000e+00,7.00000000e-01
3.92634472e-10,1.15507894e-01,0.00000000e+00,7.00000000e-01
3.95130075e-10,-7.53546004e-03,0.00000000e+00,7.00000000e-01
3.95383272e-10,-1.82131141e-02,0.00000000e+00,7.00000000e-01
3.95636470e-10,-2.83108199e-02,0.00000000e+00,7.00000000e-01
3.96142865e-10,-4.52410717e-02,0.00000000e+00,7.00000000e-01
3.96649259e-10,-5.82193553e-02,0.00000000e+00,7.00000000e-01
3.97155654e-10,-6.77318240e-02,0.00000000e+00,7.00000000e-01
3.97662049e-10,-7.42070736e-02,0.00000000e+00,7.00000000e-01
3.98168444e-10,-7.80228570e-02,0.00000000e+00,7.00000000e-01
3.98674839e-10,-7.95120327e-02,0.00000000e+00,7.00000000e-01
3.99181234e-10,-7.89678306e-02,0.00000000e+00,7.00000000e-01
4.00194024e-10,-7.28870106e-02,0.00000000e+00,7.00000000e-01
4.01206813e-10,-6.13665333e-02,0.00000000e+00,7.00000000e-01
4.02219603e-10,-4.57425979e-02,0.00000000e+00,7.00000000e-01
4.03232393e-10,-2.70494757e-02,0.00000000e+00,7.00000000e-01
4.04245183e-10,-6.08695582e-03,0.00000000e+00,7.00000000e-01
4.06270762e-10,4.01123865e-02,0.00000000e+00,7.00000000e-01
4.10321921e-10,1.39923874e-01,0.00000000e+00,7.00000000e-01
4.14373080e-10,2.41306105e-01,0.00000000e+00,7.00000000e-01
4.18424239e-10,3.39184365e-01,0.00000000e+00,7.00000000e-01
4.22475398e-10,4.31948322e-01,0.00000000e+00,7.00000000e-01
4.26526557e-10,5.18903961e-01,0.00000000e+00,7.00000000e-01
4.30577716e-10,5.98063161e-01,0.00000000e+00,7.00000000e-01
4.34628875e-10,6.59143366e-01,0.00000000e+00,7.00000000e-01
4.37953677e-10,6.86449151e-01,0.00000000e+00,7.00000000e-01
4.40626628e-10,6.95229921e-01,0.00000000e+00,7.00000000e-01
4.43299579e-10,6.98431925e-01,0.00000000e+00,7.00000000e-01
4.45972530e-10,6.99497299e-01,0.00000000e+00,7.00000000e-01
4.51318432e-10,7.00007429e-01,0.00000000e+00,7.00000000e-01
4.56664334e-10,6.99999643e-01,0.00000000e+00,7.00000000e-01
4.67356139e-10,7.00005875e-01,0.00000000e+00,7.00000000e-01
4.78047943e-10,6.99997248e-01,0.00000000e+00,7.00000000e-01
4.99431551e-10,7.00000864e-01,0.00000000e+00,7.00000000e-01
5.00000000e-10,7.00000589e-01,0.00000000e+00,7.00000000e-01
5.00142112e-10,7.07499159e-01,9.94785578e-03,7.00000000e-01
5.00250999e-10,7.13008488e-01,1.75699394e-02,7.00000000e-01
5.00468773e-10,7.23618907e-01,3.28141065e-02,7.00000000e-01
5.00904321e-10,7.43452403e-01,6.33024408e-02,7.00000000e-01
5.01339868e-10,7.62503026e-01,9.37907751e-02,7.00000000e-01
5.02210963e-10,8.00868378e-01,1.54767444e-01,7.00000000e-01
5.03082059e-10,8.40230578e-01,2.15744112e-01,7.00000000e-01
5.03953154e-10,8.80247976e-01,2.76720781e-01,7.00000000e-01
5.05695345e-10,9.60965221e-01,3.98674118e-01,7.00000000e-01
5.09179726e-10,1.11797463e+00,6.42580793e-01,7.00000000e-01
5.10000000e-10,1.15029338e+00,7.00000000e-01,7.00000000e-01
5.10219450e-10,1.14710852e+00,7.00000000e-01,7.00000000e-01
5.10416955e-10,1.14405634e+00,7.00000000e-01,7.00000000e-01
5.10811965e-10,1.13760936e+00,7.00000000e-01,7.00000000e-01
5.11601985e-10,1.12305017e+00,7.00000000e-01,7.00000000e-01
5.12392004e-10,1.10699160e+00,7.00000000e-01,7.00000000e-01
5.13972044e-10,1.07301161e+00,7.00000000e-01,7.00000000e-01
5.15552083e-10,1.03810913e+00,7.00000000e-01,7.00000000e-01
5.18712163e-10,9.68178178e-01,7.00000000e-01,7.00000000e-01
5.21872242e-10,8.98505934e-01,7.00000000e-01,7.00000000e-01
5.28192400e-10,7.60156893e-01,7.00000000e-01,7.00000000e-01
5.40832716e-10,4.87759618e-01,7.00000000e-01,7.00000000e-01
5.53473033e-10,2.22870811e-01,7.00000000e-01,7.00000000e-01
5.57426726e-10,1.44469220e-01,7.00000000e-01,7.00000000e-01
5.61380418e-10,7.74474366e-02,7.00000000e-01,7.00000000e-01
5.61966101e-10,6.98603120e-02,7.00000000e-01,7.00000000e-01
5.62551784e-10,6.27219004e-02,7.00000000e-01,7.00000000e-01
5.63723150e-10,5.05091498e-02,7.00000000e-01,7.00000000e-01
5.64894516e-10,4.04938608e-02,7.00000000e-01,7.00000000e-01
5.66065883e-10,3.22092409e-02,7.00000000e-01,7.00000000e-01
5.68408615e-10,1.98337225e-02,7.00000000e-01,7.00000000e-01
5.70751347e-10,1.18527358e-02,7.00000000e-01,7.00000000e-01
5.73094079e-10,6.92051584e-03,7.00000000e-01,7.00000000e-01
5.75436811e-10,3.98528144e-03,7.00000000e-01,7.00000000e-01
5.80122276e-10,1.16861478e-03,7.00000000e-01,7.00000000e-01
5.84807740e-10,3.35474669e-04,7.00000000e-01,7.00000000e-01
5.94178669e-10,-1.84294655e-05,7.00000000e-01,7.00000000e-01
6.03549597e-10,1.53490177e-06,7.00000000e-01,7.00000000e-01
6.22291455e-10,-6.80174803e-07,7.00000000e-01,7.00000000e-01
6.41033312e-10,6.29751757e-07,7.00000000e-01,7.00000000e-01
6.78517027e-10,-3.53811387e-07,7.00000000e-01,7.00000000e-01
7.28517027e-10,5.29020836e-07,7.00000000e-01,7.00000000e-01
7.78517027e-10,-2.90863428e-07,7.00000000e-01,7.00000000e-01
8.10000000e-10,4.68374318e-07,7.00000000e-01,7.00000000e-01
8.10062500e-10,-3.28885775e-03,6.95625000e-01,7.00000000e-01
8.10187500e-10,-9.64523073e-03,6.86875000e-01,7.00000000e-01
8.10312500e-10,-1.58906385e-02,6.78125000e-01,7.00000000e-01
8.10562500e-10,-2.77830159e-02,6.60625000e-01,7.00000000e-01
8.11062500e-10,-4.95185623e-02,6.25625000e-01,7.00000000e-01
8.11562500e-10,-6.91756996e-02,5.90625000e-01,7.00000000e-01
8.12062500e-10,-8.79310785e-02,5.55625000e-01,7.00000000e-01
8.12562500e-10,-1.07006934e-01,5.20625000e-01,7.00000000e-01
8.13062500e-10,-1.27085163e-01,4.85625000e-01,7.00000000e-01
8.14062500e-10,-1.69801609e-01,4.15625000e-01,7.00000000e-01
8.15062500e-10,-2.14752798e-01,3.45625000e-01,7.00000000e-01
8.16062500e-10,-2.60679610e-01,2.75625000e-01,7.00000000e-01
8.18062500e-10,-3.52961956e-01,1.35625000e-01,7.00000000e-01
8.19112266e-10,-3.95726655e-01,6.21413789e-02,7.00000000e-01
8.19438914e-10,-4.07871697e-01,3.92760346e-02,7.00000000e-01
8.19765562e-10,-4.18856990e-01,1.64106903e-02,7.00000000e-01
8.20000000e-10,-4.24520369e-01,5.99520433e-15,7.00000000e-01
8.20065330e-10,-4.22088928e-01,0.00000000e+00,7.00000000e-01
8.20124126e-10,-4.19903210e-01,0.00000000e+00,7.00000000e-01
8.20241719e-10,-4.15536904e-01,0.00000000e+00,7.00000000e-01
8.20476906e-10,-4.06835000e-01,0.00000000e+00,7.00000000e-01
8.20947279e-10,-3.89552561e-01,0.00000000e+00,7.00000000e-01
8.21888024e-10,-3.55462916e-01,0.00000000e+00,7.00000000e-01
8.23769515e-10,-2.89112893e-01,0.00000000e+00,7.00000000e-01
8.25651007e-10,-2.25097055e-01,0.00000000e+00,7.00000000e-01
8.27532498e-10,-1.63285771e-01,0.00000000e+00,7.00000000e-01
8.29413989e-10,-1.03560015e-01,0.00000000e+00,7.00000000e-01
8.31295480e-10,-4.58100606e-02,0.00000000e+00,7.00000000e-01
8.35058462e-10,6.42028075e-02,0.00000000e+00,7.00000000e-01
8.38821445e-10,1.67417972e-01,0.00000000e+00,7.00000000e-01
8.42584427e-10,2.64439965e-01,0.00000000e+00,7.00000000e-01
8.46347410e-10,3.55756416e-01,0.00000000e+00,7.00000000e-01
8.50110392e-10,4.41697600e-01,0.00000000e+00,7.00000000e-01
8.53873374e-10,5.22239900e-01,0.00000000e+00,7.00000000e-01
8.57636357e-10,5.95895149e-01,0.00000000e+00,7.00000000e-01
8.61399339e-10,6.54528664e-01,0.00000000e+00,7.00000000e-01
8.64703552e-10,6.84231932e-01,0.00000000e+00,7.00000000e-01
8.67367845e-10,6.94338961e-01,0.00000000e+00,7.00000000e-01
8.70032139e-10,6.98116305e-01,0.00000000e+00,7.00000000e-01
8.75360727e-10,7.00018017e-01,0.00000000e+00,7.00000000e-01
8.80156456e-10,7.00001530e-01,0.00000000e+00,7.00000000e-01
8.89747914e-10,6.99998893e-01,0.00000000e+00,7.00000000e-01
8.99339372e-10,6.99999659e-01,0.00000000e+00,7.00000000e-01
9.18522288e-10,6.99999379e-01,0.00000000e+00,7.00000000e-01
9.56888120e-10,6.99999559e-01,0.00000000e+00,7.00000000e-01
1.00000000e-09,6.99999420e-01,0.00000000e+00,7.00000000e-01
