TIME,V(OUT),V(IN1),V(IN2)
0.00000000e+00,8.99999869e-01,0.00000000e+00,0.00000000e+00
1.00000000e-15,9.00024794e-01,0.00000000e+00,9.00000000e-05
3.00000000e-15,9.00075932e-01,0.00000000e+00,2.70000000e-04
7.00000000e-15,9.00175909e-01,0.00000000e+00,6.30000000e-04
1.50000000e-14,9.00371495e-01,0.00000000e+00,1.35000000e-03
3.10000000e-14,9.00754824e-01,0.00000000e+00,2.79000000e-03
6.30000000e-14,9.01485623e-01,0.00000000e+00,5.67000000e-03
1.27000000e-13,9.02819581e-01,0.00000000e+00,1.14300000e-02
2.55000000e-13,9.05048323e-01,0.00000000e+00,2.29500000e-02
5.11000000e-13,9.08212861e-01,0.00000000e+00,4.59900000e-02
1.02300000e-12,9.11593440e-01,0.00000000e+00,9.20700000e-02
2.04700000e-12,9.14108659e-01,0.00000000e+00,1.84230000e-01
3.07100000e-12,9.15405079e-01,0.00000000e+00,2.76390000e-01
5.11900000e-12,9.17488462e-01,0.00000000e+00,4.60710000e-01
5.32673419e-12,9.17545185e-01,0.00000000e+00,4.79406077e-01
5.74220256e-12,9.17596601e-01,0.00000000e+00,5.16798230e-01
6.15767093e-12,9.17650055e-01,0.00000000e+00,5.54190383e-01
6.57313930e-12,9.17679884e-01,0.00000000e+00,5.91582537e-01
6.98860767e-12,9.17670401e-01,0.00000000e+00,6.28974690e-01
7.81954441e-12,9.17518081e-01,0.00000000e+00,7.03758997e-01
8.49361981e-12,9.17243384e-01,0.00000000e+00,7.64425783e-01
9.16769522e-12,9.16817726e-01,0.00000000e+00,8.25092570e-01
1.00000000e-11,9.16062122e-01,0.00000000e+00,9.00000000e-01
1.01348151e-11,9.14146624e-01,0.00000000e+00,9.00000000e-01
1.02696302e-11,9.12461926e-01,0.00000000e+00,9.00000000e-01
1.05392603e-11,9.09489539e-01,0.00000000e+00,9.00000000e-01
1.10785206e-11,9.05440057e-01,0.00000000e+00,9.00000000e-01
1.16177810e-11,9.03116026e-01,0.00000000e+00,9.00000000e-01
1.26963016e-11,9.00917914e-01,0.00000000e+00,9.00000000e-01
1.37748223e-11,9.00266206e-01,0.00000000e+00,9.00000000e-01
1.59318636e-11,8.99981819e-01,0.00000000e+00,9.00000000e-01
1.80889049e-11,8.99991123e-01,0.00000000e+00,9.00000000e-01
2.24029875e-11,8.99991631e-01,0.00000000e+00,9.00000000e-01
3.10311526e-11,8.99991448e-01,0.00000000e+00,9.00000000e-01
4.10311526e-11,8.99991556e-01,0.00000000e+00,9.00000000e-01
5.10311526e-11,8.99991489e-01,0.00000000e+00,9.00000000e-01
6.10311526e-11,8.99991530e-01,0.00000000e+00,9.00000000e-01
7.10311526e-11,8.99991505e-01,0.00000000e+00,9.00000000e-01
8.10311526e-11,8.99991521e-01,0.00000000e+00,9.00000000e-01
9.10311526e-11,8.99991511e-01,0.00000000e+00,9.00000000e-01
1.00000000e-10,8.99991517e-01,0.00000000e+00,9.00000000e-01
1.00062500e-10,9.01817298e-01,5.62500000e-03,9.00000000e-01
1.00125000e-10,9.03529038e-01,1.12500000e-02,9.00000000e-01
1.00250000e-10,9.06742988e-01,2.25000000e-02,9.00000000e-01
1.00500000e-10,9.12117541e-01,4.50000000e-02,9.00000000e-01
1.01000000e-10,9.19935969e-01,9.00000000e-02,9.00000000e-01
1.02000000e-10,9.29692997e-01,1.80000000e-01,9.00000000e-01
1.04000000e-10,9.38510736e-01,3.60000000e-01,9.00000000e-01
1.04302239e-10,9.38181281e-01,3.87201546e-01,9.00000000e-01
1.04604479e-10,9.37150375e-01,4.14403093e-01,9.00000000e-01
1.05208958e-10,9.30427344e-01,4.68806185e-01,9.00000000e-01
1.05813436e-10,9.16306886e-01,5.23209278e-01,9.00000000e-01
1.06417915e-10,8.94096066e-01,5.77612370e-01,9.00000000e-01
1.07022394e-10,8.63455083e-01,6.32015463e-01,9.00000000e-01
1.07626873e-10,8.24265887e-01,6.86418555e-01,9.00000000e-01
1.08231352e-10,7.76313386e-01,7.40821648e-01,9.00000000e-01
1.08835830e-10,7.19169185e-01,7.95224740e-01,9.00000000e-01
1.09440309e-10,6.52563218e-01,8.49627833e-01,9.00000000e-01
1.10000000e-10,5.82849608e-01,9.00000000e-01,9.00000000e-01
1.10060448e-10,5.73514751e-01,9.00000000e-01,9.00000000e-01
1.10105357e-10,5.66613181e-01,9.00000000e-01,9.00000000e-01
1.10195176e-10,5.52855633e-01,9.00000000e-01,9.00000000e-01
1.10374814e-10,5.25647571e-01,9.00000000e-01,9.00000000e-01
1.10734090e-10,4.72283646e-01,9.00000000e-01,9.00000000e-01
1.11452642e-10,3.70259302e-01,9.00000000e-01,9.00000000e-01
1.12171194e-10,2.78935235e-01,9.00000000e-01,9.00000000e-01
1.12889746e-10,2.04556939e-01,9.00000000e-01,9.00000000e-01
1.13608298e-10,1.48188396e-01,9.00000000e-01,9.00000000e-01
1.14326850e-10,1.06716098e-01,9.00000000e-01,9.00000000e-01
1.15045402e-10,7.66366498e-02,9.00000000e-01,9.00000000e-01
1.15763954e-10,5.49480034e-02,9.00000000e-01,9.00000000e-01
1.16482506e-10,3.93476254e-02,9.00000000e-01,9.00000000e-01
1.17201058e-10,2.81468137e-02,9.00000000e-01,9.00000000e-01
1.18638162e-10,1.40991404e-02,9.00000000e-01,9.00000000e-01
1.21512369e-10,2.83261400e-03,9.00000000e-01,9.00000000e-01
1.27260785e-10,-3.93165392e-04,9.00000000e-01,9.00000000e-01
1.32372995e-10,7.78328236e-05,9.00000000e-01,9.00000000e-01
1.37485206e-10,2.46909393e-05,9.00000000e-01,9.00000000e-01
1.42597416e-10,2.65837683e-05,9.00000000e-01,9.00000000e-01
1.52821836e-10,2.87123625e-05,9.00000000e-01,9.00000000e-01
1.73270678e-10,2.64799116e-05,9.00000000e-01,9.00000000e-01
2.14168360e-10,2.86990516e-05,9.00000000e-01,9.00000000e-01
2.64168360e-10,2.64990697e-05,9.00000000e-01,9.00000000e-01
3.10000000e-10,2.86762489e-05,9.00000000e-01,9.00000000e-01
3.10062500e-10,-7.44803370e-04,9.00000000e-01,8.94375000e-01
3.10125000e-10,-1.52685162e-03,9.00000000e-01,8.88750000e-01
3.10250000e-10,-3.09911127e-03,9.00000000e-01,8.77500000e-01
3.10500000e-10,-6.17915966e-03,9.00000000e-01,8.55000000e-01
3.11000000e-10,-1.17482255e-02,9.00000000e-01,8.10000000e-01
3.12000000e-10,-1.99450990e-02,9.00000000e-01,7.20000000e-01
3.13000000e-10,-2.32593311e-02,9.00000000e-01,6.30000000e-01
3.14000000e-10,-1.64099486e-02,9.00000000e-01,5.40000000e-01
3.15000000e-10,1.13717025e-02,9.00000000e-01,4.50000000e-01
3.15900000e-10,6.28245070e-02,9.00000000e-01,3.69000000e-01
3.16679923e-10,1.29705664e-01,9.00000000e-01,2.98806952e-01
3.17381853e-10,2.07464780e-01,9.00000000e-01,2.35633209e-01
3.18083784e-10,3.01525961e-01,9.00000000e-01,1.72459466e-01
3.18785714e-10,4.14533839e-01,9.00000000e-01,1.09285724e-01
3.19487645e-10,5.43116857e-01,9.00000000e-01,4.61119807e-02
3.20000000e-10,6.35351138e-01,9.00000000e-01,-1.55431223e-15
3.20043162e-10,6.43518585e-01,9.00000000e-01,0.00000000e+00
3.20081650e-10,6.50632935e-01,9.00000000e-01,0.00000000e+00
3.20158626e-10,6.64518014e-01,9.00000000e-01,0.00000000e+00
3.20312578e-10,6.90326391e-01,9.00000000e-01,0.00000000e+00
3.20620482e-10,7.34556246e-01,9.00000000e-01,0.00000000e+00
3.20928386e-10,7.69859116e-01,9.00000000e-01,0.00000000e+00
3.21236290e-10,7.97573179e-01,9.00000000e-01,0.00000000e+00
3.21544195e-10,8.19074555e-01,9.00000000e-01,0.00000000e+00
3.21852099e-10,8.35673302e-01,9.00000000e-01,0.00000000e+00
3.22467907e-10,8.58715584e-01,9.00000000e-01,0.00000000e+00
3.23699524e-10,8.82180237e-01,9.00000000e-01,0.00000000e+00
3.24931141e-10,8.91054168e-01,9.00000000e-01,0.00000000e+00
3.26162757e-10,8.94742909e-01,9.00000000e-01,0.00000000e+00
3.27394374e-10,8.96450240e-01,9.00000000e-01,0.00000000e+00
3.29857607e-10,8.97941790e-01,9.00000000e-01,0.00000000e+00
3.32320841e-10,8.98491811e-01,9.00000000e-01,0.00000000e+00
3.37247308e-10,8.99043521e-01,9.00000000e-01,0.00000000e+00
3.42173774e-10,8.99292896e-01,9.00000000e-01,0.00000000e+00
3.52026708e-10,8.99550349e-01,9.00000000e-01,0.00000000e+00
3.61879642e-10,8.99665864e-01,9.00000000e-01,0.00000000e+00
3.81585509e-10,8.99787326e-01,9.00000000e-01,0.00000000e+00
4.01291377e-10,8.99840458e-01,9.00000000e-01,0.00000000e+00
4.40703111e-10,8.99898589e-01,9.00000000e-01,0.00000000e+00
4.80114846e-10,8.99922662e-01,9.00000000e-01,0.00000000e+00
5.00000000e-10,8.99933423e-01,9.00000000e-01,0.00000000e+00
5.00062500e-10,9.01438814e-01,9.00000000e-01,5.62500000e-03
5.00125000e-10,9.02864290e-01,9.00000000e-01,1.12500000e-02
5.00250000e-10,9.05546708e-01,9.00000000e-01,2.25000000e-02
5.00500000e-10,9.10058844e-01,9.00000000e-01,4.50000000e-02
5.01000000e-10,9.16693928e-01,9.00000000e-01,9.00000000e-02
5.02000000e-10,9.25231697e-01,9.00000000e-01,1.80000000e-01
5.04000000e-10,9.41225190e-01,9.00000000e-01,3.60000000e-01
5.04195810e-10,9.43230086e-01,9.00000000e-01,3.77622881e-01
5.04587429e-10,9.47501039e-01,9.00000000e-01,4.12868643e-01
5.04979049e-10,9.52372537e-01,9.00000000e-01,4.48114405e-01
5.05370669e-10,9.57767584e-01,9.00000000e-01,4.83360167e-01
5.05762288e-10,9.63552764e-01,9.00000000e-01,5.18605930e-01
5.06153908e-10,9.69395844e-01,9.00000000e-01,5.53851692e-01
5.06545527e-10,9.74308286e-01,9.00000000e-01,5.89097454e-01
5.06937147e-10,9.76099299e-01,9.00000000e-01,6.24343216e-01
5.07328766e-10,9.71832764e-01,9.00000000e-01,6.59588978e-01
5.07720386e-10,9.59620926e-01,9.00000000e-01,6.94834740e-01
5.08112006e-10,9.39446001e-01,9.00000000e-01,7.30080502e-01
5.08503625e-10,9.12032431e-01,9.00000000e-01,7.65326264e-01
5.08895245e-10,8.78161869e-01,9.00000000e-01,8.00572026e-01
5.09286864e-10,8.38598689e-01,9.00000000e-01,8.35817789e-01
5.09678484e-10,7.94170894e-01,9.00000000e-01,8.71063551e-01
5.10000000e-10,7.54705940e-01,9.00000000e-01,9.00000000e-01
5.10039162e-10,7.49187070e-01,9.00000000e-01,9.00000000e-01
5.10074408e-10,7.44187537e-01,9.00000000e-01,9.00000000e-01
5.10144899e-10,7.34114680e-01,9.00000000e-01,9.00000000e-01
5.10285882e-10,7.13645455e-01,9.00000000e-01,9.00000000e-01
5.10567848e-10,6.71888714e-01,9.00000000e-01,9.00000000e-01
5.11131781e-10,5.87280155e-01,9.00000000e-01,9.00000000e-01
5.12259645e-10,4.21690083e-01,9.00000000e-01,9.00000000e-01
5.13387509e-10,2.75355617e-01,9.00000000e-01,9.00000000e-01
5.14402587e-10,1.76569101e-01,9.00000000e-01,9.00000000e-01
5.15265412e-10,1.19411205e-01,9.00000000e-01,9.00000000e-01
5.16128237e-10,8.01840535e-02,9.00000000e-01,9.00000000e-01
5.16991062e-10,5.37147746e-02,9.00000000e-01,9.00000000e-01
5.17853887e-10,3.59090659e-02,9.00000000e-01,9.00000000e-01
5.18716712e-10,2.39700047e-02,9.00000000e-01,9.00000000e-01
5.20442362e-10,1.02850820e-02,9.00000000e-01,9.00000000e-01
5.22168012e-10,4.40635634e-03,9.00000000e-01,9.00000000e-01
5.23893662e-10,1.89184622e-03,9.00000000e-01,9.00000000e-01
5.27344962e-10,2.28632319e-04,9.00000000e-01,9.00000000e-01
5.30796262e-10,4.88592813e-05,9.00000000e-01,9.00000000e-01
5.37698861e-10,2.27743614e-05,9.00000000e-01,9.00000000e-01
5.44601461e-10,2.85760157e-05,9.00000000e-01,9.00000000e-01
5.58406660e-10,2.71607713e-05,9.00000000e-01,9.00000000e-01
5.86017059e-10,2.78654759e-05,9.00000000e-01,9.00000000e-01
6.36017059e-10,2.73916119e-05,9.00000000e-01,9.00000000e-01
6.86017059e-10,2.77387953e-05,9.00000000e-01,9.00000000e-01
7.36017059e-10,2.74975113e-05,9.00000000e-01,9.00000000e-01
7.86017059e-10,2.76503835e-05,9.00000000e-01,9.00000000e-01
8.10000000e-10,2.76016495e-05,9.00000000e-01,9.00000000e-01
8.10062500e-10,-7.45671442e-04,9.00000000e-01,8.94375000e-01
8.10125000e-10,-1.52755113e-03,9.00000000e-01,8.88750000e-01
8.10250000e-10,-3.09954501e-03,9.00000000e-01,8.77500000e-01
8.10500000e-10,-6.17934296e-03,9.00000000e-01,8.55000000e-01
8.11000000e-10,-1.17482917e-02,9.00000000e-01,8.10000000e-01
8.12000000e-10,-1.99451484e-02,9.00000000e-01,7.20000000e-01
8.13000000e-10,-2.32593587e-02,9.00000000e-01,6.30000000e-01
8.14000000e-10,-1.64099665e-02,9.00000000e-01,5.40000000e-01
8.15000000e-10,1.13716905e-02,9.00000000e-01,4.50000000e-01
8.15900000e-10,6.28244973e-02,9.00000000e-01,3.69000000e-01
8.16679923e-10,1.29705654e-01,9.00000000e-01,2.98806954e-01
8.17381853e-10,2.07464769e-01,9.00000000e-01,2.35633212e-01
8.18083784e-10,3.01525947e-01,9.00000000e-01,1.72459470e-01
8.18785714e-10,4.14533822e-01,9.00000000e-01,1.09285729e-01
8.19487645e-10,5.43116838e-01,9.00000000e-01,4.61119872e-02
8.20000000e-10,6.35351133e-01,9.00000000e-01,7.77156117e-15
8.20043162e-10,6.43518580e-01,9.00000000e-01,0.00000000e+00
8.20081650e-10,6.50632930e-01,9.00000000e-01,0.00000000e+00
8.20158626e-10,6.64518009e-01,9.00000000e-01,0.00000000e+00
8.20312578e-10,6.90326386e-01,9.00000000e-01,0.00000000e+00
8.20620482e-10,7.34556241e-01,9.00000000e-01,0.00000000e+00
8.20928386e-10,7.69859111e-01,9.00000000e-01,0.00000000e+00
8.21236290e-10,7.97573175e-01,9.00000000e-01,0.00000000e+00
8.21544195e-10,8.19074551e-01,9.00000000e-01,0.00000000e+00
8.21852099e-10,8.35673299e-01,9.00000000e-01,0.00000000e+00
8.22467907e-10,8.58715582e-01,9.00000000e-01,0.00000000e+00
8.23699524e-10,8.82180236e-01,9.00000000e-01,0.00000000e+00
8.24931140e-10,8.91054168e-01,9.00000000e-01,0.00000000e+00
8.26162757e-10,8.94742909e-01,9.00000000e-01,0.00000000e+00
8.27394374e-10,8.96450240e-01,9.00000000e-01,0.00000000e+00
8.29857607e-10,8.97941790e-01,9.00000000e-01,0.00000000e+00
8.32320841e-10,8.98491810e-01,9.00000000e-01,0.00000000e+00
8.37247307e-10,8.99043521e-01,9.00000000e-01,0.00000000e+00
8.42173774e-10,8.99292896e-01,9.00000000e-01,0.00000000e+00
8.52026708e-10,8.99550349e-01,9.00000000e-01,0.00000000e+00
8.61879641e-10,8.99665864e-01,9.00000000e-01,0.00000000e+00
8.81585508e-10,8.99787326e-01,9.00000000e-01,0.00000000e+00
9.01291375e-10,8.99840458e-01,9.00000000e-01,0.00000000e+00
9.40703109e-10,8.99898589e-01,9.00000000e-01,0.00000000e+00
9.80114843e-10,8.99922662e-01,9.00000000e-01,0.00000000e+00
1.00000000e-09,8.99933423e-01,9.00000000e-01,0.00000000e+00
