TIME,V(OUT),V(IN1),V(IN2)
0.00000000e+00,6.99999927e-01,0.00000000e+00,0.00000000e+00
1.00000000e-13,7.02921274e-01,0.00000000e+00,7.00000000e-03
2.00000000e-13,7.04870132e-01,0.00000000e+00,1.40000000e-02
3.00000000e-13,7.06233640e-01,0.00000000e+00,2.10000000e-02
4.00000000e-13,7.07125964e-01,0.00000000e+00,2.80000000e-02
5.00000000e-13,7.08018288e-01,0.00000000e+00,3.50000000e-02
6.00000000e-13,7.08343873e-01,0.00000000e+00,4.20000000e-02
7.00000000e-13,7.08599412e-01,0.00000000e+00,4.90000000e-02
8.00000000e-13,7.08854951e-01,0.00000000e+00,5.60000000e-02
9.00000000e-13,7.09110490e-01,0.00000000e+00,6.30000000e-02
1.00000000e-12,7.09366029e-01,0.00000000e+00,7.00000000e-02
1.10000000e-12,7.09458832e-01,0.00000000e+00,7.70000000e-02
1.20000000e-12,7.09503025e-01,0.00000000e+00,8.40000000e-02
1.30000000e-12,7.09547218e-01,0.00000000e+00,9.10000000e-02
1.40000000e-12,7.09591411e-01,0.00000000e+00,9.80000000e-02
1.50000000e-12,7.09635604e-01,0.00000000e+00,1.05000000e-01
1.60000000e-12,7.09682807e-01,0.00000000e+00,1.12000000e-01
1.70000000e-12,7.09731630e-01,0.00000000e+00,1.19000000e-01
1.80000000e-12,7.09780453e-01,0.00000000e+00,1.26000000e-01
1.90000000e-12,7.09829276e-01,0.00000000e+00,1.33000000e-01
2.00000000e-12,7.09878099e-01,0.00000000e+00,1.40000000e-01
2.10000000e-12,7.09926922e-01,0.00000000e+00,1.47000000e-01
2.20000000e-12,7.09975746e-01,0.00000000e+00,1.54000000e-01
2.30000000e-12,7.10024569e-01,0.00000000e+00,1.61000000e-01
2.40000000e-12,7.10073392e-01,0.00000000e+00,1.68000000e-01
2.50000000e-12,7.10122215e-01,0.00000000e+00,1.75000000e-01
2.60000000e-12,7.10173938e-01,0.00000000e+00,1.82000000e-01
2.70000000e-12,7.10229835e-01,0.00000000e+00,1.89000000e-01
2.80000000e-12,7.10285732e-01,0.00000000e+00,1.96000000e-01
2.90000000e-12,7.10341628e-01,0.00000000e+00,2.03000000e-01
3.00000000e-12,7.10397525e-01,0.00000000e+00,2.10000000e-01
3.10000000e-12,7.10453422e-01,0.00000000e+00,2.17000000e-01
3.20000000e-12,7.10509319e-01,0.00000000e+00,2.24000000e-01
3.30000000e-12,7.10565215e-01,0.00000000e+00,2.31000000e-01
3.40000000e-12,7.10621112e-01,0.00000000e+00,2.38000000e-01
3.50000000e-12,7.10677009e-01,0.00000000e+00,2.45000000e-01
3.60000000e-12,7.10734038e-01,0.00000000e+00,2.52000000e-01
3.70351025e-12,7.10798790e-01,0.00000000e+00,2.59245717e-01
3.80000000e-12,7.10850158e-01,0.00000000e+00,2.66000000e-01
3.90000000e-12,7.10903394e-01,0.00000000e+00,2.73000000e-01
4.00000000e-12,7.10957273e-01,0.00000000e+00,2.80000000e-01
4.10000000e-12,7.11011666e-01,0.00000000e+00,2.87000000e-01
4.20000000e-12,7.11066060e-01,0.00000000e+00,2.94000000e-01
4.30000000e-12,7.11120453e-01,0.00000000e+00,3.01000000e-01
4.40000000e-12,7.11174847e-01,0.00000000e+00,3.08000000e-01
4.50000000e-12,7.11222728e-01,0.00000000e+00,3.15000000e-01
4.60000000e-12,7.11268252e-01,0.00000000e+00,3.22000000e-01
4.70000000e-12,7.11313776e-01,0.00000000e+00,3.29000000e-01
4.80000000e-12,7.11359300e-01,0.00000000e+00,3.36000000e-01
4.90000000e-12,7.11395529e-01,0.00000000e+00,3.43000000e-01
5.00000000e-12,7.11422410e-01,0.00000000e+00,3.50000000e-01
5.10000000e-12,7.11449292e-01,0.00000000e+00,3.57000000e-01
5.20296948e-12,7.11476971e-01,0.00000000e+00,3.64207863e-01
5.30000000e-12,7.11474579e-01,0.00000000e+00,3.71000000e-01
5.40000000e-12,7.11472112e-01,0.00000000e+00,3.78000000e-01
5.50000000e-12,7.11469646e-01,0.00000000e+00,3.85000000e-01
5.60000000e-12,7.11431406e-01,0.00000000e+00,3.92000000e-01
5.70000000e-12,7.11383931e-01,0.00000000e+00,3.99000000e-01
5.80000000e-12,7.11336457e-01,0.00000000e+00,4.06000000e-01
5.90000000e-12,7.11248270e-01,0.00000000e+00,4.13000000e-01
6.00000000e-12,7.11135064e-01,0.00000000e+00,4.20000000e-01
6.10000000e-12,7.11021858e-01,0.00000000e+00,4.27000000e-01
6.20000000e-12,7.10874923e-01,0.00000000e+00,4.34000000e-01
6.30000000e-12,7.10685736e-01,0.00000000e+00,4.41000000e-01
6.40000000e-12,7.10496549e-01,0.00000000e+00,4.48000000e-01
6.50000000e-12,7.10271375e-01,0.00000000e+00,4.55000000e-01
6.60000000e-12,7.10020775e-01,0.00000000e+00,4.62000000e-01
6.70000000e-12,7.09770175e-01,0.00000000e+00,4.69000000e-01
6.80000000e-12,7.09503801e-01,0.00000000e+00,4.76000000e-01
6.90000000e-12,7.09231537e-01,0.00000000e+00,4.83000000e-01
7.00000000e-12,7.08959272e-01,0.00000000e+00,4.90000000e-01
7.10000000e-12,7.08730700e-01,0.00000000e+00,4.97000000e-01
7.20000000e-12,7.08508649e-01,0.00000000e+00,5.04000000e-01
7.30000000e-12,7.08286597e-01,0.00000000e+00,5.11000000e-01
7.40000000e-12,7.08064545e-01,0.00000000e+00,5.18000000e-01
7.50000000e-12,7.07842494e-01,0.00000000e+00,5.25000000e-01
7.60000000e-12,7.07639223e-01,0.00000000e+00,5.32000000e-01
7.70000000e-12,7.07538881e-01,0.00000000e+00,5.39000000e-01
7.80000000e-12,7.07438539e-01,0.00000000e+00,5.46000000e-01
7.90000000e-12,7.07338197e-01,0.00000000e+00,5.53000000e-01
8.00000000e-12,7.07237855e-01,0.00000000e+00,5.60000000e-01
8.10000000e-12,7.07137513e-01,0.00000000e+00,5.67000000e-01
8.20000000e-12,7.07070559e-01,0.00000000e+00,5.74000000e-01
8.30000000e-12,7.07046362e-01,0.00000000e+00,5.81000000e-01
8.40000000e-12,7.07022166e-01,0.00000000e+00,5.88000000e-01
8.50000000e-12,7.06997969e-01,0.00000000e+00,5.95000000e-01
8.60000000e-12,7.06973772e-01,0.00000000e+00,6.02000000e-01
8.70000000e-12,7.06949576e-01,0.00000000e+00,6.09000000e-01
8.80000000e-12,7.06925379e-01,0.00000000e+00,6.16000000e-01
8.90000000e-12,7.06901182e-01,0.00000000e+00,6.23000000e-01
9.00000000e-12,7.06876986e-01,0.00000000e+00,6.30000000e-01
9.10000000e-12,7.06852789e-01,0.00000000e+00,6.37000000e-01
9.20000000e-12,7.06828592e-01,0.00000000e+00,6.44000000e-01
9.29931988e-12,7.06804560e-01,0.00000000e+00,6.50952392e-01
9.40000000e-12,7.06807892e-01,0.00000000e+00,6.58000000e-01
9.50000000e-12,7.06811201e-01,0.00000000e+00,6.65000000e-01
9.60000000e-12,7.06814511e-01,0.00000000e+00,6.72000000e-01
9.70000000e-12,7.06817820e-01,0.00000000e+00,6.79000000e-01
9.80000000e-12,7.06821130e-01,0.00000000e+00,6.86000000e-01
9.90000000e-12,7.06824439e-01,0.00000000e+00,6.93000000e-01
1.00000000e-11,7.06827749e-01,0.00000000e+00,7.00000000e-01
1.01000000e-11,7.05449442e-01,0.00000000e+00,7.00000000e-01
1.02000000e-11,7.04274696e-01,0.00000000e+00,7.00000000e-01
1.03000000e-11,7.03361562e-01,0.00000000e+00,7.00000000e-01
1.04000000e-11,7.02624205e-01,0.00000000e+00,7.00000000e-01
1.05000000e-11,7.02058914e-01,0.00000000e+00,7.00000000e-01
1.06000000e-11,7.01643870e-01,0.00000000e+00,7.00000000e-01
1.07000000e-11,7.01228826e-01,0.00000000e+00,7.00000000e-01
1.08000000e-11,7.00971337e-01,0.00000000e+00,7.00000000e-01
1.09000000e-11,7.00757715e-01,0.00000000e+00,7.00000000e-01
1.10000000e-11,7.00568695e-01,0.00000000e+00,7.00000000e-01
1.11000000e-11,7.00480161e-01,0.00000000e+00,7.00000000e-01
1.12000000e-11,7.00391627e-01,0.00000000e+00,7.00000000e-01
1.13000000e-11,7.00303093e-01,0.00000000e+00,7.00000000e-01
1.14000000e-11,7.00214559e-01,0.00000000e+00,7.00000000e-01
1.14974384e-11,7.00128294e-01,0.00000000e+00,7.00000000e-01
1.16000000e-11,7.00108375e-01,0.00000000e+00,7.00000000e-01
1.17000000e-11,7.00088955e-01,0.00000000e+00,7.00000000e-01
1.18000000e-11,7.00069534e-01,0.00000000e+00,7.00000000e-01
1.19000000e-11,7.00050113e-01,0.00000000e+00,7.00000000e-01
1.20000000e-11,7.00030693e-01,0.00000000e+00,7.00000000e-01
1.21000000e-11,7.00025248e-01,0.00000000e+00,7.00000000e-01
1.22000000e-11,7.00022182e-01,0.00000000e+00,7.00000000e-01
1.23000000e-11,7.00019116e-01,0.00000000e+00,7.00000000e-01
1.24000000e-11,7.00016050e-01,0.00000000e+00,7.00000000e-01
1.25000000e-11,7.00012984e-01,0.00000000e+00,7.00000000e-01
1.26000000e-11,7.00009918e-01,0.00000000e+00,7.00000000e-01
1.27000000e-11,7.00006852e-01,0.00000000e+00,7.00000000e-01
1.28000000e-11,7.00003786e-01,0.00000000e+00,7.00000000e-01
1.29000000e-11,7.00000721e-01,0.00000000e+00,7.00000000e-01
1.30000000e-11,6.99997655e-01,0.00000000e+00,7.00000000e-01
1.31000000e-11,6.99996353e-01,0.00000000e+00,7.00000000e-01
1.32000000e-11,6.99996729e-01,0.00000000e+00,7.00000000e-01
1.33000000e-11,6.99997106e-01,0.00000000e+00,7.00000000e-01
1.34000000e-11,6.99997482e-01,0.00000000e+00,7.00000000e-01
1.35000000e-11,6.99997859e-01,0.00000000e+00,7.00000000e-01
1.36000000e-11,6.99998235e-01,0.00000000e+00,7.00000000e-01
1.37000000e-11,6.99998612e-01,0.00000000e+00,7.00000000e-01
1.38000000e-11,6.99998989e-01,0.00000000e+00,7.00000000e-01
1.39000000e-11,6.99999365e-01,0.00000000e+00,7.00000000e-01
1.40000000e-11,6.99999742e-01,0.00000000e+00,7.00000000e-01
1.41000000e-11,7.00000049e-01,0.00000000e+00,7.00000000e-01
1.42000000e-11,7.00000019e-01,0.00000000e+00,7.00000000e-01
1.43000000e-11,6.99999990e-01,0.00000000e+00,7.00000000e-01
1.44000000e-11,6.99999960e-01,0.00000000e+00,7.00000000e-01
1.45000000e-11,6.99999931e-01,0.00000000e+00,7.00000000e-01
1.46000000e-11,6.99999901e-01,0.00000000e+00,7.00000000e-01
1.47000000e-11,6.99999871e-01,0.00000000e+00,7.00000000e-01
1.48000000e-11,6.99999842e-01,0.00000000e+00,7.00000000e-01
1.49000000e-11,6.99999812e-01,0.00000000e+00,7.00000000e-01
1.50000000e-11,6.99999783e-01,0.00000000e+00,7.00000000e-01
1.51000000e-11,6.99999753e-01,0.00000000e+00,7.00000000e-01
1.52000000e-11,6.99999723e-01,0.00000000e+00,7.00000000e-01
1.53000000e-11,6.99999694e-01,0.00000000e+00,7.00000000e-01
1.54000000e-11,6.99999664e-01,0.00000000e+00,7.00000000e-01
1.55000000e-11,6.99999634e-01,0.00000000e+00,7.00000000e-01
1.56000000e-11,6.99999605e-01,0.00000000e+00,7.00000000e-01
1.57000000e-11,6.99999575e-01,0.00000000e+00,7.00000000e-01
1.58000000e-11,6.99999546e-01,0.00000000e+00,7.00000000e-01
1.59000000e-11,6.99999516e-01,0.00000000e+00,7.00000000e-01
1.60000000e-11,6.99999486e-01,0.00000000e+00,7.00000000e-01
1.61000000e-11,6.99999457e-01,0.00000000e+00,7.00000000e-01
1.62000000e-11,6.99999445e-01,0.00000000e+00,7.00000000e-01
1.63000000e-11,6.99999453e-01,0.00000000e+00,7.00000000e-01
1.64000000e-11,6.99999460e-01,0.00000000e+00,7.00000000e-01
1.65000000e-11,6.99999468e-01,0.00000000e+00,7.00000000e-01
1.66000000e-11,6.99999475e-01,0.00000000e+00,7.00000000e-01
1.67000000e-11,6.99999483e-01,0.00000000e+00,7.00000000e-01
1.68000000e-11,6.99999490e-01,0.00000000e+00,7.00000000e-01
1.69000000e-11,6.99999498e-01,0.00000000e+00,7.00000000e-01
1.70000000e-11,6.99999506e-01,0.00000000e+00,7.00000000e-01
1.71000000e-11,6.99999513e-01,0.00000000e+00,7.00000000e-01
1.72000000e-11,6.99999521e-01,0.00000000e+00,7.00000000e-01
1.73000000e-11,6.99999528e-01,0.00000000e+00,7.00000000e-01
1.74000000e-11,6.99999536e-01,0.00000000e+00,7.00000000e-01
1.75000000e-11,6.99999543e-01,0.00000000e+00,7.00000000e-01
1.76000000e-11,6.99999551e-01,0.00000000e+00,7.00000000e-01
1.77000000e-11,6.99999558e-01,0.00000000e+00,7.00000000e-01
1.78000000e-11,6.99999566e-01,0.00000000e+00,7.00000000e-01
1.79000000e-11,6.99999574e-01,0.00000000e+00,7.00000000e-01
1.80000000e-11,6.99999581e-01,0.00000000e+00,7.00000000e-01
1.81000000e-11,6.99999589e-01,0.00000000e+00,7.00000000e-01
1.82000000e-11,6.99999596e-01,0.00000000e+00,7.00000000e-01
1.83000000e-11,6.99999604e-01,0.00000000e+00,7.00000000e-01
1.84000000e-11,6.99999611e-01,0.00000000e+00,7.00000000e-01
1.85000000e-11,6.99999619e-01,0.00000000e+00,7.00000000e-01
1.86000000e-11,6.99999626e-01,0.00000000e+00,7.00000000e-01
1.87000000e-11,6.99999634e-01,0.00000000e+00,7.00000000e-01
1.88000000e-11,6.99999641e-01,0.00000000e+00,7.00000000e-01
1.89000000e-11,6.99999649e-01,0.00000000e+00,7.00000000e-01
1.90000000e-11,6.99999657e-01,0.00000000e+00,7.00000000e-01
1.91000000e-11,6.99999664e-01,0.00000000e+00,7.00000000e-01
1.92000000e-11,6.99999672e-01,0.00000000e+00,7.00000000e-01
1.93000000e-11,6.99999679e-01,0.00000000e+00,7.00000000e-01
1.94000000e-11,6.99999687e-01,0.00000000e+00,7.00000000e-01
1.95000000e-11,6.99999694e-01,0.00000000e+00,7.00000000e-01
1.96000000e-11,6.99999702e-01,0.00000000e+00,7.00000000e-01
1.97000000e-11,6.99999709e-01,0.00000000e+00,7.00000000e-01
1.98000000e-11,6.99999717e-01,0.00000000e+00,7.00000000e-01
1.99000000e-11,6.99999725e-01,0.00000000e+00,7.00000000e-01
2.00000000e-11,6.99999732e-01,0.00000000e+00,7.00000000e-01
2.01000000e-11,6.99999740e-01,0.00000000e+00,7.00000000e-01
2.02000000e-11,6.99999747e-01,0.00000000e+00,7.00000000e-01
2.03000000e-11,6.99999753e-01,0.00000000e+00,7.00000000e-01
2.04000000e-11,6.99999751e-01,0.00000000e+00,7.00000000e-01
2.05000000e-11,6.99999748e-01,0.00000000e+00,7.00000000e-01
2.06000000e-11,6.99999745e-01,0.00000000e+00,7.00000000e-01
2.07000000e-11,6.99999742e-01,0.00000000e+00,7.00000000e-01
2.08000000e-11,6.99999740e-01,0.00000000e+00,7.00000000e-01
2.09000000e-11,6.99999737e-01,0.00000000e+00,7.00000000e-01
2.10000000e-11,6.99999734e-01,0.00000000e+00,7.00000000e-01
2.11000000e-11,6.99999731e-01,0.00000000e+00,7.00000000e-01
2.12000000e-11,6.99999729e-01,0.00000000e+00,7.00000000e-01
2.13000000e-11,6.99999726e-01,0.00000000e+00,7.00000000e-01
2.14000000e-11,6.99999723e-01,0.00000000e+00,7.00000000e-01
2.15000000e-11,6.99999720e-01,0.00000000e+00,7.00000000e-01
2.16000000e-11,6.99999718e-01,0.00000000e+00,7.00000000e-01
2.17000000e-11,6.99999715e-01,0.00000000e+00,7.00000000e-01
2.18000000e-11,6.99999712e-01,0.00000000e+00,7.00000000e-01
2.19000000e-11,6.99999709e-01,0.00000000e+00,7.00000000e-01
2.20000000e-11,6.99999706e-01,0.00000000e+00,7.00000000e-01
2.21000000e-11,6.99999704e-01,0.00000000e+00,7.00000000e-01
2.22000000e-11,6.99999701e-01,0.00000000e+00,7.00000000e-01
2.23000000e-11,6.99999698e-01,0.00000000e+00,7.00000000e-01
2.24000000e-11,6.99999695e-01,0.00000000e+00,7.00000000e-01
2.25000000e-11,6.99999693e-01,0.00000000e+00,7.00000000e-01
2.26000000e-11,6.99999690e-01,0.00000000e+00,7.00000000e-01
2.27000000e-11,6.99999687e-01,0.00000000e+00,7.00000000e-01
2.28000000e-11,6.99999684e-01,0.00000000e+00,7.00000000e-01
2.29000000e-11,6.99999682e-01,0.00000000e+00,7.00000000e-01
2.30000000e-11,6.99999679e-01,0.00000000e+00,7.00000000e-01
2.31000000e-11,6.99999676e-01,0.00000000e+00,7.00000000e-01
2.32000000e-11,6.99999673e-01,0.00000000e+00,7.00000000e-01
2.33000000e-11,6.99999670e-01,0.00000000e+00,7.00000000e-01
2.34000000e-11,6.99999668e-01,0.00000000e+00,7.00000000e-01
2.35000000e-11,6.99999665e-01,0.00000000e+00,7.00000000e-01
2.36000000e-11,6.99999662e-01,0.00000000e+00,7.00000000e-01
2.37000000e-11,6.99999659e-01,0.00000000e+00,7.00000000e-01
2.38000000e-11,6.99999657e-01,0.00000000e+00,7.00000000e-01
2.39000000e-11,6.99999654e-01,0.00000000e+00,7.00000000e-01
2.40000000e-11,6.99999651e-01,0.00000000e+00,7.00000000e-01
2.41000000e-11,6.99999648e-01,0.00000000e+00,7.00000000e-01
2.42000000e-11,6.99999646e-01,0.00000000e+00,7.00000000e-01
2.43000000e-11,6.99999643e-01,0.00000000e+00,7.00000000e-01
2.44000000e-11,6.99999640e-01,0.00000000e+00,7.00000000e-01
2.45000000e-11,6.99999637e-01,0.00000000e+00,7.00000000e-01
2.46000000e-11,6.99999635e-01,0.00000000e+00,7.00000000e-01
2.47000000e-11,6.99999632e-01,0.00000000e+00,7.00000000e-01
2.48000000e-11,6.99999629e-01,0.00000000e+00,7.00000000e-01
2.49000000e-11,6.99999626e-01,0.00000000e+00,7.00000000e-01
2.50000000e-11,6.99999623e-01,0.00000000e+00,7.00000000e-01
2.51000000e-11,6.99999621e-01,0.00000000e+00,7.00000000e-01
2.52000000e-11,6.99999618e-01,0.00000000e+00,7.00000000e-01
2.53000000e-11,6.99999615e-01,0.00000000e+00,7.00000000e-01
2.54000000e-11,6.99999612e-01,0.00000000e+00,7.00000000e-01
2.55000000e-11,6.99999610e-01,0.00000000e+00,7.00000000e-01
2.56000000e-11,6.99999607e-01,0.00000000e+00,7.00000000e-01
2.57000000e-11,6.99999604e-01,0.00000000e+00,7.00000000e-01
2.58000000e-11,6.99999601e-01,0.00000000e+00,7.00000000e-01
2.59000000e-11,6.99999599e-01,0.00000000e+00,7.00000000e-01
2.60000000e-11,6.99999596e-01,0.00000000e+00,7.00000000e-01
2.61000000e-11,6.99999593e-01,0.00000000e+00,7.00000000e-01
2.62000000e-11,6.99999590e-01,0.00000000e+00,7.00000000e-01
2.63000000e-11,6.99999587e-01,0.00000000e+00,7.00000000e-01
2.64000000e-11,6.99999585e-01,0.00000000e+00,7.00000000e-01
2.65000000e-11,6.99999582e-01,0.00000000e+00,7.00000000e-01
2.66000000e-11,6.99999579e-01,0.00000000e+00,7.00000000e-01
2.67000000e-11,6.99999576e-01,0.00000000e+00,7.00000000e-01
2.68000000e-11,6.99999574e-01,0.00000000e+00,7.00000000e-01
2.69000000e-11,6.99999571e-01,0.00000000e+00,7.00000000e-01
2.70000000e-11,6.99999568e-01,0.00000000e+00,7.00000000e-01
2.71000000e-11,6.99999565e-01,0.00000000e+00,7.00000000e-01
2.72000000e-11,6.99999563e-01,0.00000000e+00,7.00000000e-01
2.73000000e-11,6.99999560e-01,0.00000000e+00,7.00000000e-01
2.74000000e-11,6.99999557e-01,0.00000000e+00,7.00000000e-01
2.75000000e-11,6.99999554e-01,0.00000000e+00,7.00000000e-01
2.76000000e-11,6.99999551e-01,0.00000000e+00,7.00000000e-01
2.77000000e-11,6.99999549e-01,0.00000000e+00,7.00000000e-01
2.78000000e-11,6.99999546e-01,0.00000000e+00,7.00000000e-01
2.79000000e-11,6.99999543e-01,0.00000000e+00,7.00000000e-01
2.80000000e-11,6.99999540e-01,0.00000000e+00,7.00000000e-01
2.81000000e-11,6.99999538e-01,0.00000000e+00,7.00000000e-01
2.82000000e-11,6.99999535e-01,0.00000000e+00,7.00000000e-01
2.83000000e-11,6.99999532e-01,0.00000000e+00,7.00000000e-01
2.84000000e-11,6.99999529e-01,0.00000000e+00,7.00000000e-01
2.85000000e-11,6.99999527e-01,0.00000000e+00,7.00000000e-01
2.86000000e-11,6.99999526e-01,0.00000000e+00,7.00000000e-01
2.87000000e-11,6.99999528e-01,0.00000000e+00,7.00000000e-01
2.88000000e-11,6.99999529e-01,0.00000000e+00,7.00000000e-01
2.89000000e-11,6.99999531e-01,0.00000000e+00,7.00000000e-01
2.90000000e-11,6.99999533e-01,0.00000000e+00,7.00000000e-01
2.91000000e-11,6.99999535e-01,0.00000000e+00,7.00000000e-01
2.92000000e-11,6.99999537e-01,0.00000000e+00,7.00000000e-01
2.93000000e-11,6.99999539e-01,0.00000000e+00,7.00000000e-01
2.94000000e-11,6.99999541e-01,0.00000000e+00,7.00000000e-01
2.95000000e-11,6.99999543e-01,0.00000000e+00,7.00000000e-01
2.96000000e-11,6.99999545e-01,0.00000000e+00,7.00000000e-01
2.97000000e-11,6.99999547e-01,0.00000000e+00,7.00000000e-01
2.98000000e-11,6.99999549e-01,0.00000000e+00,7.00000000e-01
2.99000000e-11,6.99999550e-01,0.00000000e+00,7.00000000e-01
3.00000000e-11,6.99999552e-01,0.00000000e+00,7.00000000e-01
3.01000000e-11,6.99999554e-01,0.00000000e+00,7.00000000e-01
3.02000000e-11,6.99999556e-01,0.00000000e+00,7.00000000e-01
3.03000000e-11,6.99999558e-01,0.00000000e+00,7.00000000e-01
3.04000000e-11,6.99999560e-01,0.00000000e+00,7.00000000e-01
3.05000000e-11,6.99999562e-01,0.00000000e+00,7.00000000e-01
3.06000000e-11,6.99999564e-01,0.00000000e+00,7.00000000e-01
3.07000000e-11,6.99999566e-01,0.00000000e+00,7.00000000e-01
3.08000000e-11,6.99999568e-01,0.00000000e+00,7.00000000e-01
3.09000000e-11,6.99999570e-01,0.00000000e+00,7.00000000e-01
3.10000000e-11,6.99999571e-01,0.00000000e+00,7.00000000e-01
3.11000000e-11,6.99999573e-01,0.00000000e+00,7.00000000e-01
3.12000000e-11,6.99999575e-01,0.00000000e+00,7.00000000e-01
3.13000000e-11,6.99999577e-01,0.00000000e+00,7.00000000e-01
3.14000000e-11,6.99999579e-01,0.00000000e+00,7.00000000e-01
3.15000000e-11,6.99999581e-01,0.00000000e+00,7.00000000e-01
3.16000000e-11,6.99999583e-01,0.00000000e+00,7.00000000e-01
3.17000000e-11,6.99999585e-01,0.00000000e+00,7.00000000e-01
3.18000000e-11,6.99999587e-01,0.00000000e+00,7.00000000e-01
3.19000000e-11,6.99999589e-01,0.00000000e+00,7.00000000e-01
3.20000000e-11,6.99999591e-01,0.00000000e+00,7.00000000e-01
3.21000000e-11,6.99999592e-01,0.00000000e+00,7.00000000e-01
3.22000000e-11,6.99999594e-01,0.00000000e+00,7.00000000e-01
3.23000000e-11,6.99999596e-01,0.00000000e+00,7.00000000e-01
3.24000000e-11,6.99999598e-01,0.00000000e+00,7.00000000e-01
3.25000000e-11,6.99999600e-01,0.00000000e+00,7.00000000e-01
3.26000000e-11,6.99999602e-01,0.00000000e+00,7.00000000e-01
3.27000000e-11,6.99999604e-01,0.00000000e+00,7.00000000e-01
3.28000000e-11,6.99999606e-01,0.00000000e+00,7.00000000e-01
3.29000000e-11,6.99999608e-01,0.00000000e+00,7.00000000e-01
3.30000000e-11,6.99999610e-01,0.00000000e+00,7.00000000e-01
3.31000000e-11,6.99999612e-01,0.00000000e+00,7.00000000e-01
