TIME,V(OUT),V(IN1),V(IN2)
0.00000000e+00,6.99999927e-01,0.00000000e+00,0.00000000e+00
1.00000000e-15,7.00035591e-01,0.00000000e+00,7.00000000e-05
3.00000000e-15,7.00106367e-01,0.00000000e+00,2.10000000e-04
7.00000000e-15,7.00246817e-01,0.00000000e+00,4.90000000e-04
1.50000000e-14,7.00521220e-01,0.00000000e+00,1.05000000e-03
3.10000000e-14,7.01045050e-01,0.00000000e+00,2.17000000e-03
6.30000000e-14,7.02000289e-01,0.00000000e+00,4.41000000e-03
1.27000000e-13,7.03593345e-01,0.00000000e+00,8.89000000e-03
2.55000000e-13,7.05832095e-01,0.00000000e+00,1.78500000e-02
5.11000000e-13,7.08116444e-01,0.00000000e+00,3.57700000e-02
1.02300000e-12,7.09424803e-01,0.00000000e+00,7.16100000e-02
1.53500000e-12,7.09651072e-01,0.00000000e+00,1.07450000e-01
2.55900000e-12,7.10151020e-01,0.00000000e+00,1.79130000e-01
3.58300000e-12,7.10723403e-01,0.00000000e+00,2.50810000e-01
3.70594591e-12,7.10800493e-01,0.00000000e+00,2.59416213e-01
3.95183772e-12,7.10931297e-01,0.00000000e+00,2.76628640e-01
4.44362135e-12,7.11198309e-01,0.00000000e+00,3.11053494e-01
4.87306905e-12,7.11390905e-01,0.00000000e+00,3.41114834e-01
5.23027687e-12,7.11480786e-01,0.00000000e+00,3.66119381e-01
5.55176392e-12,7.11461936e-01,0.00000000e+00,3.88623474e-01
5.87325096e-12,7.11290276e-01,0.00000000e+00,4.11127567e-01
6.19473800e-12,7.10897621e-01,0.00000000e+00,4.33631660e-01
6.48407634e-12,7.10320876e-01,0.00000000e+00,4.53885344e-01
6.77341468e-12,7.09576607e-01,0.00000000e+00,4.74139027e-01
7.06275301e-12,7.08793182e-01,0.00000000e+00,4.94392711e-01
7.64142969e-12,7.07568664e-01,0.00000000e+00,5.34900078e-01
8.22010636e-12,7.07046529e-01,0.00000000e+00,5.75407445e-01
9.37745971e-12,7.06805970e-01,0.00000000e+00,6.56422180e-01
1.00000000e-11,7.06826336e-01,0.00000000e+00,7.00000000e-01
1.00769424e-11,7.05732230e-01,0.00000000e+00,7.00000000e-01
1.01430866e-11,7.04924422e-01,0.00000000e+00,7.00000000e-01
1.02092308e-11,7.04177834e-01,0.00000000e+00,7.00000000e-01
1.03415192e-11,7.03000610e-01,0.00000000e+00,7.00000000e-01
1.04738076e-11,7.02155379e-01,0.00000000e+00,7.00000000e-01
1.07383844e-11,7.01091182e-01,0.00000000e+00,7.00000000e-01
1.10029612e-11,7.00552489e-01,0.00000000e+00,7.00000000e-01
1.15321148e-11,7.00114846e-01,0.00000000e+00,7.00000000e-01
1.20612685e-11,7.00023651e-01,0.00000000e+00,7.00000000e-01
1.31195757e-11,6.99996406e-01,0.00000000e+00,7.00000000e-01
1.41778829e-11,7.00000060e-01,0.00000000e+00,7.00000000e-01
1.62944974e-11,6.99999435e-01,0.00000000e+00,7.00000000e-01
2.05277263e-11,6.99999760e-01,0.00000000e+00,7.00000000e-01
2.89941842e-11,6.99999520e-01,0.00000000e+00,7.00000000e-01
3.89941842e-11,6.99999720e-01,0.00000000e+00,7.00000000e-01
4.89941842e-11,6.99999550e-01,0.00000000e+00,7.00000000e-01
5.89941842e-11,6.99999695e-01,0.00000000e+00,7.00000000e-01
6.89941842e-11,6.99999571e-01,0.00000000e+00,7.00000000e-01
7.89941842e-11,6.99999676e-01,0.00000000e+00,7.00000000e-01
8.89941842e-11,6.99999587e-01,0.00000000e+00,7.00000000e-01
9.89941842e-11,6.99999663e-01,0.00000000e+00,7.00000000e-01
1.00000000e-10,6.99999624e-01,0.00000000e+00,7.00000000e-01
1.00062500e-10,7.03384211e-01,4.37500000e-03,7.00000000e-01
1.00125000e-10,7.06317979e-01,8.75000000e-03,7.00000000e-01
1.00187500e-10,7.09043184e-01,1.31250000e-02,7.00000000e-01
1.00312500e-10,7.13428486e-01,2.18750000e-02,7.00000000e-01
1.00437500e-10,7.16695590e-01,3.06250000e-02,7.00000000e-01
1.00687500e-10,7.21123253e-01,4.81250000e-02,7.00000000e-01
1.01187500e-10,7.25750854e-01,8.31250000e-02,7.00000000e-01
1.02187500e-10,7.30402797e-01,1.53125000e-01,7.00000000e-01
1.03087500e-10,7.34331146e-01,2.16125000e-01,7.00000000e-01
1.03987500e-10,7.37475774e-01,2.79125000e-01,7.00000000e-01
1.04887500e-10,7.31610270e-01,3.42125000e-01,7.00000000e-01
1.04998430e-10,7.29488565e-01,3.49890132e-01,7.00000000e-01
1.05109361e-10,7.27115378e-01,3.57655263e-01,7.00000000e-01
1.05331222e-10,7.20873636e-01,3.73185526e-01,7.00000000e-01
1.05553083e-10,7.12238652e-01,3.88715790e-01,7.00000000e-01
1.05774944e-10,7.00459533e-01,4.04246053e-01,7.00000000e-01
1.05996805e-10,6.84309558e-01,4.19776316e-01,7.00000000e-01
1.06218665e-10,6.62116906e-01,4.35306579e-01,7.00000000e-01
1.06440526e-10,6.33027642e-01,4.50836842e-01,7.00000000e-01
1.06662387e-10,5.97699721e-01,4.66367106e-01,7.00000000e-01
1.06884248e-10,5.56839137e-01,4.81897369e-01,7.00000000e-01
1.07106109e-10,5.10861081e-01,4.97427632e-01,7.00000000e-01
1.07327970e-10,4.60139494e-01,5.12957895e-01,7.00000000e-01
1.07549831e-10,4.05194966e-01,5.28488158e-01,7.00000000e-01
1.07771692e-10,3.47040886e-01,5.44018421e-01,7.00000000e-01
1.07993553e-10,2.88155610e-01,5.59548685e-01,7.00000000e-01
1.08215414e-10,2.33850049e-01,5.75078948e-01,7.00000000e-01
1.08437274e-10,1.89462163e-01,5.90609211e-01,7.00000000e-01
1.08629198e-10,1.59935222e-01,6.04043854e-01,7.00000000e-01
1.08821121e-10,1.37185234e-01,6.17478496e-01,7.00000000e-01
1.09013045e-10,1.19402986e-01,6.30913139e-01,7.00000000e-01
1.09204968e-10,1.05268916e-01,6.44347781e-01,7.00000000e-01
1.09396892e-10,9.39315227e-02,6.57782424e-01,7.00000000e-01
1.09588815e-10,8.48074902e-02,6.71217066e-01,7.00000000e-01
1.09780739e-10,7.74598983e-02,6.84651709e-01,7.00000000e-01
1.09972662e-10,7.15443592e-02,6.98086351e-01,7.00000000e-01
1.10000000e-10,7.08040322e-02,7.00000000e-01,7.00000000e-01
1.10027338e-10,6.85756268e-02,7.00000000e-01,7.00000000e-01
1.10050023e-10,6.67730575e-02,7.00000000e-01,7.00000000e-01
1.10095393e-10,6.32597582e-02,7.00000000e-01,7.00000000e-01
1.10186132e-10,5.67574819e-02,7.00000000e-01,7.00000000e-01
1.10367612e-10,4.56228974e-02,7.00000000e-01,7.00000000e-01
1.10549091e-10,3.66407957e-02,7.00000000e-01,7.00000000e-01
1.10730571e-10,2.94089000e-02,7.00000000e-01,7.00000000e-01
1.10912050e-10,2.35936910e-02,7.00000000e-01,7.00000000e-01
1.11275009e-10,1.50912321e-02,7.00000000e-01,7.00000000e-01
1.12000927e-10,5.86561843e-03,7.00000000e-01,7.00000000e-01
1.12726845e-10,2.27559334e-03,7.00000000e-01,7.00000000e-01
1.13452763e-10,8.82095444e-04,7.00000000e-01,7.00000000e-01
1.14178680e-10,3.42364310e-04,7.00000000e-01,7.00000000e-01
1.15630516e-10,2.19849628e-05,7.00000000e-01,7.00000000e-01
1.17082352e-10,2.22350371e-06,7.00000000e-01,7.00000000e-01
1.19986023e-10,4.61443239e-07,7.00000000e-01,7.00000000e-01
1.20167503e-10,3.82240909e-03,7.00000000e-01,7.00000000e-01
1.20348982e-10,9.20755677e-03,7.00000000e-01,7.00000000e-01
1.20711941e-10,2.62212566e-02,7.00000000e-01,7.00000000e-01
1.21074900e-10,4.75796088e-02,7.00000000e-01,7.00000000e-01
1.21437859e-10,7.03527034e-02,7.00000000e-01,7.00000000e-01
1.21800818e-10,9.29744687e-02,7.00000000e-01,7.00000000e-01
1.22163777e-10,1.14660530e-01,7.00000000e-01,7.00000000e-01
1.22526736e-10,1.35065007e-01,7.00000000e-01,7.00000000e-01
1.22889694e-10,1.54076314e-01,7.00000000e-01,7.00000000e-01
1.23252653e-10,1.71702490e-01,7.00000000e-01,7.00000000e-01
1.23615612e-10,1.88007994e-01,7.00000000e-01,7.00000000e-01
1.23978571e-10,2.03079923e-01,7.00000000e-01,7.00000000e-01
1.24341530e-10,2.17010465e-01,7.00000000e-01,7.00000000e-01
1.25067448e-10,2.41839868e-01,7.00000000e-01,7.00000000e-01
1.25793366e-10,2.63053227e-01,7.00000000e-01,7.00000000e-01
1.26519284e-10,2.81155637e-01,7.00000000e-01,7.00000000e-01
1.27245201e-10,2.96569073e-01,7.00000000e-01,7.00000000e-01
1.27971119e-10,3.09645338e-01,7.00000000e-01,7.00000000e-01
1.28697037e-10,3.20696263e-01,7.00000000e-01,7.00000000e-01
1.29422955e-10,3.29994395e-01,7.00000000e-01,7.00000000e-01
1.30148873e-10,3.37783827e-01,7.00000000e-01,7.00000000e-01
1.30874791e-10,3.44281488e-01,7.00000000e-01,7.00000000e-01
1.32326626e-10,3.54220260e-01,7.00000000e-01,7.00000000e-01
1.33441413e-10,3.58999873e-01,7.00000000e-01,7.00000000e-01
1.34421170e-10,3.62321285e-01,7.00000000e-01,7.00000000e-01
1.34940416e-10,3.63861804e-01,7.00000000e-01,7.00000000e-01
1.35018709e-10,3.63914685e-01,7.00000000e-01,7.00000000e-01
1.35175296e-10,3.62601182e-01,7.00000000e-01,7.00000000e-01
1.35331883e-10,3.58662731e-01,7.00000000e-01,7.00000000e-01
1.35488470e-10,3.52487851e-01,7.00000000e-01,7.00000000e-01
1.35645057e-10,3.44416832e-01,7.00000000e-01,7.00000000e-01
1.35801644e-10,3.34775596e-01,7.00000000e-01,7.00000000e-01
1.35958231e-10,3.23886466e-01,7.00000000e-01,7.00000000e-01
1.36271405e-10,2.99720087e-01,7.00000000e-01,7.00000000e-01
1.36897753e-10,2.49068287e-01,7.00000000e-01,7.00000000e-01
1.37524101e-10,2.02497598e-01,7.00000000e-01,7.00000000e-01
1.38087814e-10,1.67299483e-01,7.00000000e-01,7.00000000e-01
1.38651527e-10,1.38492441e-01,7.00000000e-01,7.00000000e-01
1.39215240e-10,1.15290347e-01,7.00000000e-01,7.00000000e-01
1.39778953e-10,9.66409569e-02,7.00000000e-01,7.00000000e-01
1.40342667e-10,8.15714530e-02,7.00000000e-01,7.00000000e-01
1.40906380e-10,6.92728878e-02,7.00000000e-01,7.00000000e-01
1.41470093e-10,5.91249647e-02,7.00000000e-01,7.00000000e-01
1.42033806e-10,5.06634552e-02,7.00000000e-01,7.00000000e-01
1.42597519e-10,4.35449994e-02,7.00000000e-01,7.00000000e-01
1.43724945e-10,3.23254873e-02,7.00000000e-01,7.00000000e-01
1.45979798e-10,1.79768353e-02,7.00000000e-01,7.00000000e-01
1.48234650e-10,1.01945329e-02,7.00000000e-01,7.00000000e-01
1.50489503e-10,5.77822352e-03,7.00000000e-01,7.00000000e-01
1.54999208e-10,1.79210485e-03,7.00000000e-01,7.00000000e-01
1.59508912e-10,6.15499724e-04,7.00000000e-01,7.00000000e-01
1.68528322e-10,2.85305468e-05,7.00000000e-01,7.00000000e-01
1.76645791e-10,3.03509116e-05,7.00000000e-01,7.00000000e-01
1.92880729e-10,-1.70386140e-05,7.00000000e-01,7.00000000e-01
2.09115666e-10,1.56102696e-05,7.00000000e-01,7.00000000e-01
2.41585542e-10,-1.24704230e-05,7.00000000e-01,7.00000000e-01
2.91585542e-10,1.33608867e-05,7.00000000e-01,7.00000000e-01
3.10000000e-10,-9.60491273e-06,7.00000000e-01,7.00000000e-01
3.10062500e-10,-1.02338775e-03,7.00000000e-01,6.95625000e-01
3.10125000e-10,-2.18304646e-03,7.00000000e-01,6.91250000e-01
3.10187500e-10,-3.38499886e-03,7.00000000e-01,6.86875000e-01
3.10312500e-10,-5.83063985e-03,7.00000000e-01,6.78125000e-01
3.10562500e-10,-1.00878320e-02,7.00000000e-01,6.60625000e-01
3.10812500e-10,-1.33231863e-02,7.00000000e-01,6.43125000e-01
3.11062500e-10,-1.57573735e-02,7.00000000e-01,6.25625000e-01
3.11562500e-10,-1.91516906e-02,7.00000000e-01,5.90625000e-01
3.12562500e-10,-2.30852687e-02,7.00000000e-01,5.20625000e-01
3.14562500e-10,-2.14297949e-02,7.00000000e-01,3.80625000e-01
3.15065702e-10,-1.49979094e-02,7.00000000e-01,3.45400851e-01
3.15323568e-10,-1.01651280e-02,7.00000000e-01,3.27350248e-01
3.15581434e-10,-4.34580312e-03,7.00000000e-01,3.09299645e-01
3.16097165e-10,1.46207204e-02,7.00000000e-01,2.73198439e-01
3.16532317e-10,4.00479853e-02,7.00000000e-01,2.42737840e-01
3.16904342e-10,7.04125139e-02,7.00000000e-01,2.16696053e-01
3.17239165e-10,1.04932440e-01,7.00000000e-01,1.93258445e-01
3.17573988e-10,1.46340660e-01,7.00000000e-01,1.69820837e-01
3.17908811e-10,1.94771818e-01,7.00000000e-01,1.46383229e-01
3.18243634e-10,2.50463894e-01,7.00000000e-01,1.22945621e-01
3.18578457e-10,3.14034148e-01,7.00000000e-01,9.95080124e-02
3.18913280e-10,3.87016483e-01,7.00000000e-01,7.60704042e-02
3.19214621e-10,4.60272481e-01,7.00000000e-01,5.49765569e-02
3.19485827e-10,5.24082187e-01,7.00000000e-01,3.59920943e-02
3.19729913e-10,5.71625311e-01,7.00000000e-01,1.89060779e-02
3.19933162e-10,6.01979693e-01,7.00000000e-01,4.67867814e-03
3.20000000e-10,6.10153035e-01,7.00000000e-01,-1.22124533e-15
3.20018292e-10,6.12995821e-01,7.00000000e-01,0.00000000e+00
3.20032096e-10,6.15090683e-01,7.00000000e-01,0.00000000e+00
3.20059704e-10,6.19179803e-01,7.00000000e-01,0.00000000e+00
3.20114919e-10,6.26786978e-01,7.00000000e-01,0.00000000e+00
3.20225350e-10,6.39924975e-01,7.00000000e-01,0.00000000e+00
3.20335781e-10,6.50626755e-01,7.00000000e-01,0.00000000e+00
3.20446212e-10,6.59301890e-01,7.00000000e-01,0.00000000e+00
3.20556643e-10,6.66314540e-01,7.00000000e-01,0.00000000e+00
3.20667074e-10,6.71975976e-01,7.00000000e-01,0.00000000e+00
3.20887936e-10,6.80315867e-01,7.00000000e-01,0.00000000e+00
3.21329659e-10,6.89615526e-01,7.00000000e-01,0.00000000e+00
3.21771383e-10,6.93610835e-01,7.00000000e-01,0.00000000e+00
3.22213107e-10,6.95538527e-01,7.00000000e-01,0.00000000e+00
3.22654830e-10,6.96600228e-01,7.00000000e-01,0.00000000e+00
3.23538278e-10,6.97740462e-01,7.00000000e-01,0.00000000e+00
3.24421725e-10,6.98293689e-01,7.00000000e-01,0.00000000e+00
3.25305172e-10,6.98639685e-01,7.00000000e-01,0.00000000e+00
3.27072067e-10,6.99048542e-01,7.00000000e-01,0.00000000e+00
3.30605856e-10,6.99416163e-01,7.00000000e-01,0.00000000e+00
3.37673435e-10,6.99677341e-01,7.00000000e-01,0.00000000e+00
3.44741013e-10,6.99775231e-01,7.00000000e-01,0.00000000e+00
3.51808592e-10,6.99828489e-01,7.00000000e-01,0.00000000e+00
3.65943749e-10,6.99883777e-01,7.00000000e-01,0.00000000e+00
3.80078905e-10,6.92222706e-01,7.00000000e-01,0.00000000e+00
3.80271127e-10,6.86097728e-01,7.00000000e-01,0.00000000e+00
3.80655570e-10,6.67184026e-01,7.00000000e-01,0.00000000e+00
3.80998721e-10,6.43342510e-01,7.00000000e-01,0.00000000e+00
3.81341871e-10,6.18753505e-01,7.00000000e-01,0.00000000e+00
3.81685022e-10,5.95000212e-01,7.00000000e-01,0.00000000e+00
3.82028173e-10,5.72498774e-01,7.00000000e-01,0.00000000e+00
3.82371324e-10,5.51296817e-01,7.00000000e-01,0.00000000e+00
3.82714474e-10,5.31357163e-01,7.00000000e-01,0.00000000e+00
3.83400776e-10,4.95172415e-01,7.00000000e-01,0.00000000e+00
3.84087077e-10,4.64251769e-01,7.00000000e-01,0.00000000e+00
3.84773378e-10,4.39206393e-01,7.00000000e-01,0.00000000e+00
3.85459680e-10,4.20216246e-01,7.00000000e-01,0.00000000e+00
3.86145981e-10,4.06549184e-01,7.00000000e-01,0.00000000e+00
3.86832282e-10,3.96818591e-01,7.00000000e-01,0.00000000e+00
3.87518584e-10,3.89409383e-01,7.00000000e-01,0.00000000e+00
3.88297435e-10,3.81713345e-01,7.00000000e-01,0.00000000e+00
3.88753317e-10,3.77000032e-01,7.00000000e-01,0.00000000e+00
3.89209198e-10,3.72098994e-01,7.00000000e-01,0.00000000e+00
3.89619492e-10,3.67657119e-01,7.00000000e-01,0.00000000e+00
3.90029785e-10,3.63231897e-01,7.00000000e-01,0.00000000e+00
3.90850372e-10,3.54834714e-01,7.00000000e-01,0.00000000e+00
3.91670959e-10,3.47588114e-01,7.00000000e-01,0.00000000e+00
3.92491545e-10,3.41608950e-01,7.00000000e-01,0.00000000e+00
3.93312132e-10,3.36721020e-01,7.00000000e-01,0.00000000e+00
3.94953306e-10,3.29472790e-01,7.00000000e-01,0.00000000e+00
3.95158453e-10,3.31942355e-01,7.00000000e-01,0.00000000e+00
3.95363599e-10,3.36229566e-01,7.00000000e-01,0.00000000e+00
3.95773893e-10,3.53176379e-01,7.00000000e-01,0.00000000e+00
3.96138076e-10,3.75246844e-01,7.00000000e-01,0.00000000e+00
3.96502260e-10,4.02614935e-01,7.00000000e-01,0.00000000e+00
3.96866443e-10,4.34460059e-01,7.00000000e-01,0.00000000e+00
3.97230627e-10,4.68846427e-01,7.00000000e-01,0.00000000e+00
3.97594810e-10,5.02448830e-01,7.00000000e-01,0.00000000e+00
3.97958994e-10,5.32328034e-01,7.00000000e-01,0.00000000e+00
3.98323177e-10,5.57219248e-01,7.00000000e-01,0.00000000e+00
3.98687361e-10,5.77265099e-01,7.00000000e-01,0.00000000e+00
3.99051544e-10,5.93280114e-01,7.00000000e-01,0.00000000e+00
3.99415727e-10,6.06195166e-01,7.00000000e-01,0.00000000e+00
3.99779911e-10,6.16809052e-01,7.00000000e-01,0.00000000e+00
4.00144094e-10,6.25716691e-01,7.00000000e-01,0.00000000e+00
4.00872461e-10,6.40011662e-01,7.00000000e-01,0.00000000e+00
4.02329195e-10,6.59752461e-01,7.00000000e-01,0.00000000e+00
4.03785929e-10,6.72357145e-01,7.00000000e-01,0.00000000e+00
4.05242663e-10,6.80889411e-01,7.00000000e-01,0.00000000e+00
4.08156131e-10,6.90761449e-01,7.00000000e-01,0.00000000e+00
4.11069599e-10,6.95354817e-01,7.00000000e-01,0.00000000e+00
4.13983067e-10,6.97642859e-01,7.00000000e-01,0.00000000e+00
4.19810003e-10,6.99290324e-01,7.00000000e-01,0.00000000e+00
4.25636939e-10,6.99687746e-01,7.00000000e-01,0.00000000e+00
4.31463874e-10,6.99817346e-01,7.00000000e-01,0.00000000e+00
4.43117746e-10,6.99876852e-01,7.00000000e-01,0.00000000e+00
4.66425489e-10,6.99926972e-01,7.00000000e-01,0.00000000e+00
5.00000000e-10,6.99946345e-01,7.00000000e-01,0.00000000e+00
5.00062500e-10,7.02411301e-01,7.00000000e-01,4.37500000e-03
5.00125000e-10,7.04548949e-01,7.00000000e-01,8.75000000e-03
5.00187500e-10,7.06535156e-01,7.00000000e-01,1.31250000e-02
5.00312500e-10,7.09734019e-01,7.00000000e-01,2.18750000e-02
5.00562500e-10,7.13996122e-01,7.00000000e-01,3.93750000e-02
5.00812500e-10,7.16464466e-01,7.00000000e-01,5.68750000e-02
5.01062500e-10,7.18022214e-01,7.00000000e-01,7.43750000e-02
5.01562500e-10,7.20057848e-01,7.00000000e-01,1.09375000e-01
5.02062500e-10,7.21586432e-01,7.00000000e-01,1.44375000e-01
5.03062500e-10,7.25098814e-01,7.00000000e-01,2.14375000e-01
5.03234800e-10,7.25851581e-01,7.00000000e-01,2.26436025e-01
5.03579401e-10,7.27438810e-01,7.00000000e-01,2.50558076e-01
5.03690715e-10,7.28031406e-01,7.00000000e-01,2.58350026e-01
5.03802028e-10,7.28627540e-01,7.00000000e-01,2.66141976e-01
5.04024655e-10,7.29921711e-01,7.00000000e-01,2.81725876e-01
5.04247283e-10,7.31362416e-01,7.00000000e-01,2.97309775e-01
5.04469910e-10,7.32967273e-01,7.00000000e-01,3.12893675e-01
5.04692537e-10,7.34756612e-01,7.00000000e-01,3.28477575e-01
5.04915164e-10,7.36753150e-01,7.00000000e-01,3.44061475e-01
5.05137791e-10,7.38981432e-01,7.00000000e-01,3.59645374e-01
5.05360418e-10,7.41466760e-01,7.00000000e-01,3.75229274e-01
5.05583045e-10,7.44233241e-01,7.00000000e-01,3.90813174e-01
5.05805672e-10,7.47299255e-01,7.00000000e-01,4.06397074e-01
5.06028300e-10,7.50603869e-01,7.00000000e-01,4.21980973e-01
5.06250927e-10,7.52825986e-01,7.00000000e-01,4.37564873e-01
5.06473554e-10,7.49021986e-01,7.00000000e-01,4.53148773e-01
5.06663357e-10,7.37028129e-01,7.00000000e-01,4.66434965e-01
5.06834179e-10,7.17586629e-01,7.00000000e-01,4.78392537e-01
5.07005002e-10,6.89301715e-01,7.00000000e-01,4.90350110e-01
5.07175824e-10,6.53143071e-01,7.00000000e-01,5.02307682e-01
5.07346647e-10,6.10835399e-01,7.00000000e-01,5.14265255e-01
5.07517469e-10,5.63661386e-01,7.00000000e-01,5.26222828e-01
5.07688291e-10,5.12714607e-01,7.00000000e-01,5.38180400e-01
5.07859114e-10,4.59361293e-01,7.00000000e-01,5.50137973e-01
5.08099370e-10,3.83900446e-01,7.00000000e-01,5.66955892e-01
5.08339626e-10,3.15851349e-01,7.00000000e-01,5.83773812e-01
5.08549651e-10,2.65540116e-01,7.00000000e-01,5.98475601e-01
5.08738674e-10,2.27171753e-01,7.00000000e-01,6.11707211e-01
5.08927697e-10,1.94067788e-01,7.00000000e-01,6.24938821e-01
5.09116720e-10,1.65340610e-01,7.00000000e-01,6.38170430e-01
5.09305743e-10,1.40513365e-01,7.00000000e-01,6.51402040e-01
5.09494766e-10,1.19273985e-01,7.00000000e-01,6.64633650e-01
5.09683789e-10,1.01315799e-01,7.00000000e-01,6.77865260e-01
5.09872812e-10,8.62971312e-02,7.00000000e-01,6.91096870e-01
5.10000000e-10,7.76736981e-02,7.00000000e-01,7.00000000e-01
5.10018902e-10,7.62415298e-02,7.00000000e-01,7.00000000e-01
5.10035914e-10,7.49422469e-02,7.00000000e-01,7.00000000e-01
5.10069939e-10,7.23335732e-02,7.00000000e-01,7.00000000e-01
5.10137987e-10,6.71453028e-02,7.00000000e-01,7.00000000e-01
5.10274083e-10,5.73936221e-02,7.00000000e-01,7.00000000e-01
5.10410180e-10,4.88051490e-02,7.00000000e-01,7.00000000e-01
5.10546276e-10,4.14381083e-02,7.00000000e-01,7.00000000e-01
5.10682373e-10,3.51609885e-02,7.00000000e-01,7.00000000e-01
5.10954566e-10,2.52365637e-02,7.00000000e-01,7.00000000e-01
5.11226759e-10,1.80974350e-02,7.00000000e-01,7.00000000e-01
5.11498952e-10,1.29704579e-02,7.00000000e-01,7.00000000e-01
5.11771145e-10,9.29256041e-03,7.00000000e-01,7.00000000e-01
5.12315532e-10,4.67483244e-03,7.00000000e-01,7.00000000e-01
5.13404304e-10,9.52620418e-04,7.00000000e-01,7.00000000e-01
5.15581849e-10,-1.31885163e-04,7.00000000e-01,7.00000000e-01
5.17541640e-10,1.25012225e-05,7.00000000e-01,7.00000000e-01
5.19501430e-10,-1.45553666e-07,7.00000000e-01,7.00000000e-01
5.21461220e-10,9.45643892e-07,7.00000000e-01,7.00000000e-01
5.25380801e-10,8.36823363e-07,7.00000000e-01,7.00000000e-01
5.33219963e-10,8.81202400e-07,7.00000000e-01,7.00000000e-01
5.48898287e-10,8.53500407e-07,7.00000000e-01,7.00000000e-01
