TIME,V(OUT),V(IN1),V(IN2),V(IN3),V(IN4)
0.00000000e+00,6.99994950e-01,0.00000000e+00,0.00000000e+00,0.00000000e+00,0.00000000e+00
1.00000000e-13,7.03863161e-01,0.00000000e+00,0.00000000e+00,0.00000000e+00,7.00000000e-03
2.00000000e-13,7.07644344e-01,0.00000000e+00,0.00000000e+00,0.00000000e+00,1.40000000e-02
3.00000000e-13,7.11267903e-01,0.00000000e+00,0.00000000e+00,0.00000000e+00,2.10000000e-02
4.00000000e-13,7.14734765e-01,0.00000000e+00,0.00000000e+00,0.00000000e+00,2.80000000e-02
5.00000000e-13,7.18201627e-01,0.00000000e+00,0.00000000e+00,0.00000000e+00,3.50000000e-02
6.00000000e-13,7.21350602e-01,0.00000000e+00,0.00000000e+00,0.00000000e+00,4.20000000e-02
7.00000000e-13,7.24460288e-01,0.00000000e+00,0.00000000e+00,0.00000000e+00,4.90000000e-02
8.00000000e-13,7.27444025e-01,0.00000000e+00,0.00000000e+00,0.00000000e+00,5.60000000e-02
9.00000000e-13,7.30172049e-01,0.00000000e+00,0.00000000e+00,0.00000000e+00,6.30000000e-02
1.00000000e-12,7.32900072e-01,0.00000000e+00,0.00000000e+00,0.00000000e+00,7.00000000e-02
1.10000000e-12,7.35628096e-01,0.00000000e+00,0.00000000e+00,0.00000000e+00,7.70000000e-02
1.20000000e-12,7.38356120e-01,0.00000000e+00,0.00000000e+00,0.00000000e+00,8.40000000e-02
1.30000000e-12,7.41006028e-01,0.00000000e+00,0.00000000e+00,0.00000000e+00,9.10000000e-02
1.40000000e-12,7.43362073e-01,0.00000000e+00,0.00000000e+00,0.00000000e+00,9.80000000e-02
1.50000000e-12,7.45718118e-01,0.00000000e+00,0.00000000e+00,0.00000000e+00,1.05000000e-01
1.60000000e-12,7.48074163e-01,0.00000000e+00,0.00000000e+00,0.00000000e+00,1.12000000e-01
1.70000000e-12,7.50430208e-01,0.00000000e+00,0.00000000e+00,0.00000000e+00,1.19000000e-01
1.80000000e-12,7.52762091e-01,0.00000000e+00,0.00000000e+00,0.00000000e+00,1.26000000e-01
1.90000000e-12,7.54849663e-01,0.00000000e+00,0.00000000e+00,0.00000000e+00,1.33000000e-01
2.00000000e-12,7.56937234e-01,0.00000000e+00,0.00000000e+00,0.00000000e+00,1.40000000e-01
2.10000000e-12,7.59024806e-01,0.00000000e+00,0.00000000e+00,0.00000000e+00,1.47000000e-01
2.20000000e-12,7.61112377e-01,0.00000000e+00,0.00000000e+00,0.00000000e+00,1.54000000e-01
2.30300000e-12,7.63262576e-01,0.00000000e+00,0.00000000e+00,0.00000000e+00,1.61210000e-01
2.40000000e-12,7.64946873e-01,0.00000000e+00,0.00000000e+00,0.00000000e+00,1.68000000e-01
2.50000000e-12,7.66683261e-01,0.00000000e+00,0.00000000e+00,0.00000000e+00,1.75000000e-01
2.60000000e-12,7.68419650e-01,0.00000000e+00,0.00000000e+00,0.00000000e+00,1.82000000e-01
2.70000000e-12,7.70156038e-01,0.00000000e+00,0.00000000e+00,0.00000000e+00,1.89000000e-01
2.80000000e-12,7.71892427e-01,0.00000000e+00,0.00000000e+00,0.00000000e+00,1.96000000e-01
2.90000000e-12,7.73628815e-01,0.00000000e+00,0.00000000e+00,0.00000000e+00,2.03000000e-01
3.00000000e-12,7.75365204e-01,0.00000000e+00,0.00000000e+00,0.00000000e+00,2.10000000e-01
3.10000000e-12,7.77101593e-01,0.00000000e+00,0.00000000e+00,0.00000000e+00,2.17000000e-01
3.20000000e-12,7.78837981e-01,0.00000000e+00,0.00000000e+00,0.00000000e+00,2.24000000e-01
3.30000000e-12,7.80574370e-01,0.00000000e+00,0.00000000e+00,0.00000000e+00,2.31000000e-01
3.40000000e-12,7.81681177e-01,0.00000000e+00,0.00000000e+00,0.00000000e+00,2.38000000e-01
3.50000000e-12,7.82555126e-01,0.00000000e+00,0.00000000e+00,0.00000000e+00,2.45000000e-01
3.60000000e-12,7.83429075e-01,0.00000000e+00,0.00000000e+00,0.00000000e+00,2.52000000e-01
3.70000000e-12,7.84303024e-01,0.00000000e+00,0.00000000e+00,0.00000000e+00,2.59000000e-01
3.80000000e-12,7.85176973e-01,0.00000000e+00,0.00000000e+00,0.00000000e+00,2.66000000e-01
3.90000000e-12,7.86050922e-01,0.00000000e+00,0.00000000e+00,0.00000000e+00,2.73000000e-01
4.00000000e-12,7.86924871e-01,0.00000000e+00,0.00000000e+00,0.00000000e+00,2.80000000e-01
4.10000000e-12,7.87798820e-01,0.00000000e+00,0.00000000e+00,0.00000000e+00,2.87000000e-01
4.20000000e-12,7.88672769e-01,0.00000000e+00,0.00000000e+00,0.00000000e+00,2.94000000e-01
4.30000000e-12,7.89546718e-01,0.00000000e+00,0.00000000e+00,0.00000000e+00,3.01000000e-01
4.40000000e-12,7.89932121e-01,0.00000000e+00,0.00000000e+00,0.00000000e+00,3.08000000e-01
4.50000000e-12,7.89791863e-01,0.00000000e+00,0.00000000e+00,0.00000000e+00,3.15000000e-01
4.60000000e-12,7.89467730e-01,0.00000000e+00,0.00000000e+00,0.00000000e+00,3.22000000e-01
4.70000000e-12,7.88664075e-01,0.00000000e+00,0.00000000e+00,0.00000000e+00,3.29000000e-01
4.80000000e-12,7.87635640e-01,0.00000000e+00,0.00000000e+00,0.00000000e+00,3.36000000e-01
4.90000000e-12,7.86607205e-01,0.00000000e+00,0.00000000e+00,0.00000000e+00,3.43000000e-01
5.00000000e-12,7.84633614e-01,0.00000000e+00,0.00000000e+00,0.00000000e+00,3.50000000e-01
5.10000000e-12,7.82520907e-01,0.00000000e+00,0.00000000e+00,0.00000000e+00,3.57000000e-01
5.20000000e-12,7.80327307e-01,0.00000000e+00,0.00000000e+00,0.00000000e+00,3.64000000e-01
5.30000000e-12,7.76921214e-01,0.00000000e+00,0.00000000e+00,0.00000000e+00,3.71000000e-01
5.40000000e-12,7.73515121e-01,0.00000000e+00,0.00000000e+00,0.00000000e+00,3.78000000e-01
5.50000000e-12,7.69715952e-01,0.00000000e+00,0.00000000e+00,0.00000000e+00,3.85000000e-01
5.60000000e-12,7.64758598e-01,0.00000000e+00,0.00000000e+00,0.00000000e+00,3.92000000e-01
5.70000000e-12,7.59801245e-01,0.00000000e+00,0.00000000e+00,0.00000000e+00,3.99000000e-01
5.80000000e-12,7.53983469e-01,0.00000000e+00,0.00000000e+00,0.00000000e+00,4.06000000e-01
5.90000000e-12,7.47089275e-01,0.00000000e+00,0.00000000e+00,0.00000000e+00,4.13000000e-01
6.00000000e-12,7.40195081e-01,0.00000000e+00,0.00000000e+00,0.00000000e+00,4.20000000e-01
6.10000000e-12,7.31639138e-01,0.00000000e+00,0.00000000e+00,0.00000000e+00,4.27000000e-01
6.20000000e-12,7.22128380e-01,0.00000000e+00,0.00000000e+00,0.00000000e+00,4.34000000e-01
6.30000000e-12,7.12617621e-01,0.00000000e+00,0.00000000e+00,0.00000000e+00,4.41000000e-01
6.40000000e-12,7.00110443e-01,0.00000000e+00,0.00000000e+00,0.00000000e+00,4.48000000e-01
6.50000000e-12,6.86971777e-01,0.00000000e+00,0.00000000e+00,0.00000000e+00,4.55000000e-01
6.59832159e-12,6.74053631e-01,0.00000000e+00,0.00000000e+00,0.00000000e+00,4.61882511e-01
6.70000000e-12,6.56773711e-01,0.00000000e+00,0.00000000e+00,0.00000000e+00,4.69000000e-01
6.80000000e-12,6.39779032e-01,0.00000000e+00,0.00000000e+00,0.00000000e+00,4.76000000e-01
6.90000000e-12,6.21173304e-01,0.00000000e+00,0.00000000e+00,0.00000000e+00,4.83000000e-01
7.00000000e-12,6.00880993e-01,0.00000000e+00,0.00000000e+00,0.00000000e+00,4.90000000e-01
7.10396894e-12,5.79783293e-01,0.00000000e+00,0.00000000e+00,0.00000000e+00,4.97277826e-01
7.20000000e-12,5.57472668e-01,0.00000000e+00,0.00000000e+00,0.00000000e+00,5.04000000e-01
7.30000000e-12,5.34239950e-01,0.00000000e+00,0.00000000e+00,0.00000000e+00,5.11000000e-01
7.40000000e-12,5.09871879e-01,0.00000000e+00,0.00000000e+00,0.00000000e+00,5.18000000e-01
7.50000000e-12,4.84011478e-01,0.00000000e+00,0.00000000e+00,0.00000000e+00,5.25000000e-01
7.60000000e-12,4.58151076e-01,0.00000000e+00,0.00000000e+00,0.00000000e+00,5.32000000e-01
7.70000000e-12,4.30290850e-01,0.00000000e+00,0.00000000e+00,0.00000000e+00,5.39000000e-01
7.80000000e-12,4.02217854e-01,0.00000000e+00,0.00000000e+00,0.00000000e+00,5.46000000e-01
7.90000000e-12,3.73598257e-01,0.00000000e+00,0.00000000e+00,0.00000000e+00,5.53000000e-01
8.00000000e-12,3.44069987e-01,0.00000000e+00,0.00000000e+00,0.00000000e+00,5.60000000e-01
8.10000000e-12,3.14541717e-01,0.00000000e+00,0.00000000e+00,0.00000000e+00,5.67000000e-01
8.20000000e-12,2.85150698e-01,0.00000000e+00,0.00000000e+00,0.00000000e+00,5.74000000e-01
8.30000000e-12,2.55784402e-01,0.00000000e+00,0.00000000e+00,0.00000000e+00,5.81000000e-01
8.40000000e-12,2.27346708e-01,0.00000000e+00,0.00000000e+00,0.00000000e+00,5.88000000e-01
8.50000000e-12,2.00890235e-01,0.00000000e+00,0.00000000e+00,0.00000000e+00,5.95000000e-01
8.60000000e-12,1.74433762e-01,0.00000000e+00,0.00000000e+00,0.00000000e+00,6.02000000e-01
8.70000000e-12,1.51947509e-01,0.00000000e+00,0.00000000e+00,0.00000000e+00,6.09000000e-01
8.80000000e-12,1.30510977e-01,0.00000000e+00,0.00000000e+00,0.00000000e+00,6.16000000e-01
8.90000000e-12,1.11776683e-01,0.00000000e+00,0.00000000e+00,0.00000000e+00,6.23000000e-01
9.00000000e-12,9.55823625e-02,0.00000000e+00,0.00000000e+00,0.00000000e+00,6.30000000e-01
9.10000000e-12,8.14657393e-02,0.00000000e+00,0.00000000e+00,0.00000000e+00,6.37000000e-01
9.20000000e-12,6.96364575e-02,0.00000000e+00,0.00000000e+00,0.00000000e+00,6.44000000e-01
9.30000000e-12,5.99729244e-02,0.00000000e+00,0.00000000e+00,0.00000000e+00,6.51000000e-01
9.40000000e-12,5.15252769e-02,0.00000000e+00,0.00000000e+00,0.00000000e+00,6.58000000e-01
9.50000000e-12,4.51519975e-02,0.00000000e+00,0.00000000e+00,0.00000000e+00,6.65000000e-01
9.60306390e-12,3.91016508e-02,0.00000000e+00,0.00000000e+00,0.00000000e+00,6.72214473e-01
9.70000000e-12,3.52182253e-02,0.00000000e+00,0.00000000e+00,0.00000000e+00,6.79000000e-01
9.80000000e-12,3.13863740e-02,0.00000000e+00,0.00000000e+00,0.00000000e+00,6.86000000e-01
9.90000000e-12,2.86828486e-02,0.00000000e+00,0.00000000e+00,0.00000000e+00,6.93000000e-01
1.00000000e-11,2.61576573e-02,0.00000000e+00,0.00000000e+00,0.00000000e+00,7.00000000e-01
1.01000000e-11,2.07344455e-02,0.00000000e+00,0.00000000e+00,0.00000000e+00,7.00000000e-01
1.02000000e-11,1.64055729e-02,0.00000000e+00,0.00000000e+00,0.00000000e+00,7.00000000e-01
1.03000000e-11,1.28932833e-02,0.00000000e+00,0.00000000e+00,0.00000000e+00,7.00000000e-01
1.04000000e-11,1.02166188e-02,0.00000000e+00,0.00000000e+00,0.00000000e+00,7.00000000e-01
1.05000000e-11,8.14173452e-03,0.00000000e+00,0.00000000e+00,0.00000000e+00,7.00000000e-01
1.05965555e-11,6.13832058e-03,0.00000000e+00,0.00000000e+00,0.00000000e+00,7.00000000e-01
1.07000000e-11,5.16619212e-03,0.00000000e+00,0.00000000e+00,0.00000000e+00,7.00000000e-01
1.08000000e-11,4.22643406e-03,0.00000000e+00,0.00000000e+00,0.00000000e+00,7.00000000e-01
1.09000000e-11,3.28667601e-03,0.00000000e+00,0.00000000e+00,0.00000000e+00,7.00000000e-01
1.10000000e-11,2.34691795e-03,0.00000000e+00,0.00000000e+00,0.00000000e+00,7.00000000e-01
1.11000000e-11,1.58701322e-03,0.00000000e+00,0.00000000e+00,0.00000000e+00,7.00000000e-01
1.12000000e-11,1.33371346e-03,0.00000000e+00,0.00000000e+00,0.00000000e+00,7.00000000e-01
1.13000000e-11,1.08041370e-03,0.00000000e+00,0.00000000e+00,0.00000000e+00,7.00000000e-01
1.14000000e-11,8.27113941e-04,0.00000000e+00,0.00000000e+00,0.00000000e+00,7.00000000e-01
1.15000000e-11,5.73814180e-04,0.00000000e+00,0.00000000e+00,0.00000000e+00,7.00000000e-01
1.16000000e-11,4.20124586e-04,0.00000000e+00,0.00000000e+00,0.00000000e+00,7.00000000e-01
1.17000000e-11,3.70294335e-04,0.00000000e+00,0.00000000e+00,0.00000000e+00,7.00000000e-01
1.18000000e-11,3.20464083e-04,0.00000000e+00,0.00000000e+00,0.00000000e+00,7.00000000e-01
1.19000000e-11,2.70633832e-04,0.00000000e+00,0.00000000e+00,0.00000000e+00,7.00000000e-01
1.20000000e-11,2.20803581e-04,0.00000000e+00,0.00000000e+00,0.00000000e+00,7.00000000e-01
1.21000000e-11,1.70973329e-04,0.00000000e+00,0.00000000e+00,0.00000000e+00,7.00000000e-01
1.22000000e-11,1.21143078e-04,0.00000000e+00,0.00000000e+00,0.00000000e+00,7.00000000e-01
1.23000000e-11,7.13128265e-05,0.00000000e+00,0.00000000e+00,0.00000000e+00,7.00000000e-01
1.24000000e-11,2.14825752e-05,0.00000000e+00,0.00000000e+00,0.00000000e+00,7.00000000e-01
1.25000000e-11,-2.83476762e-05,0.00000000e+00,0.00000000e+00,0.00000000e+00,7.00000000e-01
1.26000000e-11,-2.75679659e-05,0.00000000e+00,0.00000000e+00,0.00000000e+00,7.00000000e-01
1.27000000e-11,-2.38240473e-05,0.00000000e+00,0.00000000e+00,0.00000000e+00,7.00000000e-01
1.28000000e-11,-2.00801287e-05,0.00000000e+00,0.00000000e+00,0.00000000e+00,7.00000000e-01
1.29000000e-11,-1.63362102e-05,0.00000000e+00,0.00000000e+00,0.00000000e+00,7.00000000e-01
1.30000000e-11,-1.25922916e-05,0.00000000e+00,0.00000000e+00,0.00000000e+00,7.00000000e-01
1.31000000e-11,-8.84837299e-06,0.00000000e+00,0.00000000e+00,0.00000000e+00,7.00000000e-01
1.32000000e-11,-5.10445441e-06,0.00000000e+00,0.00000000e+00,0.00000000e+00,7.00000000e-01
1.33000000e-11,-1.36053583e-06,0.00000000e+00,0.00000000e+00,0.00000000e+00,7.00000000e-01
1.34000000e-11,1.03907407e-06,0.00000000e+00,0.00000000e+00,0.00000000e+00,7.00000000e-01
1.35000000e-11,9.88430495e-07,0.00000000e+00,0.00000000e+00,0.00000000e+00,7.00000000e-01
1.36000000e-11,9.37786918e-07,0.00000000e+00,0.00000000e+00,0.00000000e+00,7.00000000e-01
1.37000000e-11,8.87143340e-07,0.00000000e+00,0.00000000e+00,0.00000000e+00,7.00000000e-01
1.38000000e-11,8.36499763e-07,0.00000000e+00,0.00000000e+00,0.00000000e+00,7.00000000e-01
1.39000000e-11,7.85856186e-07,0.00000000e+00,0.00000000e+00,0.00000000e+00,7.00000000e-01
1.40000000e-11,7.35212609e-07,0.00000000e+00,0.00000000e+00,0.00000000e+00,7.00000000e-01
1.41000000e-11,6.84569032e-07,0.00000000e+00,0.00000000e+00,0.00000000e+00,7.00000000e-01
1.42000000e-11,6.33925454e-07,0.00000000e+00,0.00000000e+00,0.00000000e+00,7.00000000e-01
1.43000000e-11,5.83281877e-07,0.00000000e+00,0.00000000e+00,0.00000000e+00,7.00000000e-01
1.44000000e-11,5.32638300e-07,0.00000000e+00,0.00000000e+00,0.00000000e+00,7.00000000e-01
1.45000000e-11,4.81994723e-07,0.00000000e+00,0.00000000e+00,0.00000000e+00,7.00000000e-01
1.46000000e-11,4.31351145e-07,0.00000000e+00,0.00000000e+00,0.00000000e+00,7.00000000e-01
1.47000000e-11,3.80707568e-07,0.00000000e+00,0.00000000e+00,0.00000000e+00,7.00000000e-01
1.48000000e-11,3.30063991e-07,0.00000000e+00,0.00000000e+00,0.00000000e+00,7.00000000e-01
1.49000000e-11,2.79420414e-07,0.00000000e+00,0.00000000e+00,0.00000000e+00,7.00000000e-01
1.50000000e-11,2.28776837e-07,0.00000000e+00,0.00000000e+00,0.00000000e+00,7.00000000e-01
1.51000000e-11,1.89510127e-07,0.00000000e+00,0.00000000e+00,0.00000000e+00,7.00000000e-01
1.52000000e-11,2.04448592e-07,0.00000000e+00,0.00000000e+00,0.00000000e+00,7.00000000e-01
1.53000000e-11,2.19387058e-07,0.00000000e+00,0.00000000e+00,0.00000000e+00,7.00000000e-01
1.54000000e-11,2.34325523e-07,0.00000000e+00,0.00000000e+00,0.00000000e+00,7.00000000e-01
1.55000000e-11,2.49263989e-07,0.00000000e+00,0.00000000e+00,0.00000000e+00,7.00000000e-01
1.56000000e-11,2.64202455e-07,0.00000000e+00,0.00000000e+00,0.00000000e+00,7.00000000e-01
1.57000000e-11,2.79140920e-07,0.00000000e+00,0.00000000e+00,0.00000000e+00,7.00000000e-01
1.58000000e-11,2.94079386e-07,0.00000000e+00,0.00000000e+00,0.00000000e+00,7.00000000e-01
1.59000000e-11,3.09017851e-07,0.00000000e+00,0.00000000e+00,0.00000000e+00,7.00000000e-01
1.60000000e-11,3.23956317e-07,0.00000000e+00,0.00000000e+00,0.00000000e+00,7.00000000e-01
1.61000000e-11,3.38894782e-07,0.00000000e+00,0.00000000e+00,0.00000000e+00,7.00000000e-01
1.62000000e-11,3.53833248e-07,0.00000000e+00,0.00000000e+00,0.00000000e+00,7.00000000e-01
1.63000000e-11,3.68771714e-07,0.00000000e+00,0.00000000e+00,0.00000000e+00,7.00000000e-01
1.64000000e-11,3.83710179e-07,0.00000000e+00,0.00000000e+00,0.00000000e+00,7.00000000e-01
1.65000000e-11,3.98648645e-07,0.00000000e+00,0.00000000e+00,0.00000000e+00,7.00000000e-01
1.66000000e-11,4.13587110e-07,0.00000000e+00,0.00000000e+00,0.00000000e+00,7.00000000e-01
1.67000000e-11,4.28525576e-07,0.00000000e+00,0.00000000e+00,0.00000000e+00,7.00000000e-01
1.68007322e-11,4.43573417e-07,0.00000000e+00,0.00000000e+00,0.00000000e+00,7.00000000e-01
1.69000000e-11,4.39710595e-07,0.00000000e+00,0.00000000e+00,0.00000000e+00,7.00000000e-01
1.70000000e-11,4.35819283e-07,0.00000000e+00,0.00000000e+00,0.00000000e+00,7.00000000e-01
1.71000000e-11,4.31927970e-07,0.00000000e+00,0.00000000e+00,0.00000000e+00,7.00000000e-01
1.72000000e-11,4.28036658e-07,0.00000000e+00,0.00000000e+00,0.00000000e+00,7.00000000e-01
1.73000000e-11,4.24145345e-07,0.00000000e+00,0.00000000e+00,0.00000000e+00,7.00000000e-01
1.74000000e-11,4.20254032e-07,0.00000000e+00,0.00000000e+00,0.00000000e+00,7.00000000e-01
1.75000000e-11,4.16362720e-07,0.00000000e+00,0.00000000e+00,0.00000000e+00,7.00000000e-01
1.76000000e-11,4.12471407e-07,0.00000000e+00,0.00000000e+00,0.00000000e+00,7.00000000e-01
1.77000000e-11,4.08580095e-07,0.00000000e+00,0.00000000e+00,0.00000000e+00,7.00000000e-01
1.78000000e-11,4.04688782e-07,0.00000000e+00,0.00000000e+00,0.00000000e+00,7.00000000e-01
1.79000000e-11,4.00797470e-07,0.00000000e+00,0.00000000e+00,0.00000000e+00,7.00000000e-01
1.80000000e-11,3.96906157e-07,0.00000000e+00,0.00000000e+00,0.00000000e+00,7.00000000e-01
1.81000000e-11,3.93014845e-07,0.00000000e+00,0.00000000e+00,0.00000000e+00,7.00000000e-01
1.82000000e-11,3.89123532e-07,0.00000000e+00,0.00000000e+00,0.00000000e+00,7.00000000e-01
1.83000000e-11,3.85232219e-07,0.00000000e+00,0.00000000e+00,0.00000000e+00,7.00000000e-01
1.84000000e-11,3.81340907e-07,0.00000000e+00,0.00000000e+00,0.00000000e+00,7.00000000e-01
1.85000000e-11,3.77449594e-07,0.00000000e+00,0.00000000e+00,0.00000000e+00,7.00000000e-01
1.86000000e-11,3.73558282e-07,0.00000000e+00,0.00000000e+00,0.00000000e+00,7.00000000e-01
1.87000000e-11,3.69666969e-07,0.00000000e+00,0.00000000e+00,0.00000000e+00,7.00000000e-01
1.88000000e-11,3.65775657e-07,0.00000000e+00,0.00000000e+00,0.00000000e+00,7.00000000e-01
1.89000000e-11,3.61884344e-07,0.00000000e+00,0.00000000e+00,0.00000000e+00,7.00000000e-01
1.90000000e-11,3.57993031e-07,0.00000000e+00,0.00000000e+00,0.00000000e+00,7.00000000e-01
1.91000000e-11,3.54101719e-07,0.00000000e+00,0.00000000e+00,0.00000000e+00,7.00000000e-01
1.92000000e-11,3.50210406e-07,0.00000000e+00,0.00000000e+00,0.00000000e+00,7.00000000e-01
1.93000000e-11,3.46319094e-07,0.00000000e+00,0.00000000e+00,0.00000000e+00,7.00000000e-01
1.94000000e-11,3.42427781e-07,0.00000000e+00,0.00000000e+00,0.00000000e+00,7.00000000e-01
1.95000000e-11,3.38536469e-07,0.00000000e+00,0.00000000e+00,0.00000000e+00,7.00000000e-01
1.96000000e-11,3.34645156e-07,0.00000000e+00,0.00000000e+00,0.00000000e+00,7.00000000e-01
1.97000000e-11,3.30753843e-07,0.00000000e+00,0.00000000e+00,0.00000000e+00,7.00000000e-01
1.98000000e-11,3.26862531e-07,0.00000000e+00,0.00000000e+00,0.00000000e+00,7.00000000e-01
1.99000000e-11,3.22971218e-07,0.00000000e+00,0.00000000e+00,0.00000000e+00,7.00000000e-01
2.00000000e-11,3.19079906e-07,0.00000000e+00,0.00000000e+00,0.00000000e+00,7.00000000e-01
2.01000000e-11,3.15188593e-07,0.00000000e+00,0.00000000e+00,0.00000000e+00,7.00000000e-01
2.02000000e-11,3.11297281e-07,0.00000000e+00,0.00000000e+00,0.00000000e+00,7.00000000e-01
2.03000000e-11,3.11154253e-07,0.00000000e+00,0.00000000e+00,0.00000000e+00,7.00000000e-01
2.04000000e-11,3.13202378e-07,0.00000000e+00,0.00000000e+00,0.00000000e+00,7.00000000e-01
2.05000000e-11,3.15250503e-07,0.00000000e+00,0.00000000e+00,0.00000000e+00,7.00000000e-01
2.06000000e-11,3.17298629e-07,0.00000000e+00,0.00000000e+00,0.00000000e+00,7.00000000e-01
2.07000000e-11,3.19346754e-07,0.00000000e+00,0.00000000e+00,0.00000000e+00,7.00000000e-01
2.08000000e-11,3.21394879e-07,0.00000000e+00,0.00000000e+00,0.00000000e+00,7.00000000e-01
2.09000000e-11,3.23443004e-07,0.00000000e+00,0.00000000e+00,0.00000000e+00,7.00000000e-01
2.10000000e-11,3.25491129e-07,0.00000000e+00,0.00000000e+00,0.00000000e+00,7.00000000e-01
2.11000000e-11,3.27539255e-07,0.00000000e+00,0.00000000e+00,0.00000000e+00,7.00000000e-01
2.12000000e-11,3.29587380e-07,0.00000000e+00,0.00000000e+00,0.00000000e+00,7.00000000e-01
2.13000000e-11,3.31635505e-07,0.00000000e+00,0.00000000e+00,0.00000000e+00,7.00000000e-01
2.14000000e-11,3.33683630e-07,0.00000000e+00,0.00000000e+00,0.00000000e+00,7.00000000e-01
2.15000000e-11,3.35731755e-07,0.00000000e+00,0.00000000e+00,0.00000000e+00,7.00000000e-01
2.16000000e-11,3.37779881e-07,0.00000000e+00,0.00000000e+00,0.00000000e+00,7.00000000e-01
2.17000000e-11,3.39828006e-07,0.00000000e+00,0.00000000e+00,0.00000000e+00,7.00000000e-01
2.18000000e-11,3.41876131e-07,0.00000000e+00,0.00000000e+00,0.00000000e+00,7.00000000e-01
2.19000000e-11,3.43924256e-07,0.00000000e+00,0.00000000e+00,0.00000000e+00,7.00000000e-01
2.20000000e-11,3.45972381e-07,0.00000000e+00,0.00000000e+00,0.00000000e+00,7.00000000e-01
