TIME,V(OUT),V(IN1),V(IN2),V(IN3)
0.00000000e+00,6.99994950e-01,0.00000000e+00,0.00000000e+00,0.00000000e+00
1.00000000e-13,7.01035897e-01,7.00000000e-03,0.00000000e+00,0.00000000e+00
2.00000000e-13,7.01908239e-01,1.40000000e-02,0.00000000e+00,0.00000000e+00
3.00000000e-13,7.02693918e-01,2.10000000e-02,0.00000000e+00,0.00000000e+00
4.00000000e-13,7.03416001e-01,2.80000000e-02,0.00000000e+00,0.00000000e+00
5.00000000e-13,7.04138085e-01,3.50000000e-02,0.00000000e+00,0.00000000e+00
6.00000000e-13,7.04836820e-01,4.20000000e-02,0.00000000e+00,0.00000000e+00
7.00000000e-13,7.05532669e-01,4.90000000e-02,0.00000000e+00,0.00000000e+00
8.00000000e-13,7.06228518e-01,5.60000000e-02,0.00000000e+00,0.00000000e+00
9.00000000e-13,7.06924368e-01,6.30000000e-02,0.00000000e+00,0.00000000e+00
1.00000000e-12,7.07620217e-01,7.00000000e-02,0.00000000e+00,0.00000000e+00
1.10000000e-12,7.08326748e-01,7.70000000e-02,0.00000000e+00,0.00000000e+00
1.20000000e-12,7.09036469e-01,8.40000000e-02,0.00000000e+00,0.00000000e+00
1.30000000e-12,7.09746190e-01,9.10000000e-02,0.00000000e+00,0.00000000e+00
1.40000000e-12,7.10455911e-01,9.80000000e-02,0.00000000e+00,0.00000000e+00
1.50000000e-12,7.11165633e-01,1.05000000e-01,0.00000000e+00,0.00000000e+00
1.60000000e-12,7.11840416e-01,1.12000000e-01,0.00000000e+00,0.00000000e+00
1.70000000e-12,7.12496386e-01,1.19000000e-01,0.00000000e+00,0.00000000e+00
1.80000000e-12,7.13152355e-01,1.26000000e-01,0.00000000e+00,0.00000000e+00
1.90000000e-12,7.13808325e-01,1.33000000e-01,0.00000000e+00,0.00000000e+00
2.00000000e-12,7.14464295e-01,1.40000000e-01,0.00000000e+00,0.00000000e+00
2.10000000e-12,7.15120265e-01,1.47000000e-01,0.00000000e+00,0.00000000e+00
2.20000000e-12,7.15776235e-01,1.54000000e-01,0.00000000e+00,0.00000000e+00
2.30000000e-12,7.16432205e-01,1.61000000e-01,0.00000000e+00,0.00000000e+00
2.40000000e-12,7.17088175e-01,1.68000000e-01,0.00000000e+00,0.00000000e+00
2.50000000e-12,7.17744145e-01,1.75000000e-01,0.00000000e+00,0.00000000e+00
2.60000000e-12,7.18327421e-01,1.82000000e-01,0.00000000e+00,0.00000000e+00
2.70000000e-12,7.18806088e-01,1.89000000e-01,0.00000000e+00,0.00000000e+00
2.80000000e-12,7.19284755e-01,1.96000000e-01,0.00000000e+00,0.00000000e+00
2.90000000e-12,7.19763422e-01,2.03000000e-01,0.00000000e+00,0.00000000e+00
3.00000000e-12,7.20242089e-01,2.10000000e-01,0.00000000e+00,0.00000000e+00
3.10000000e-12,7.20720756e-01,2.17000000e-01,0.00000000e+00,0.00000000e+00
3.20000000e-12,7.21199423e-01,2.24000000e-01,0.00000000e+00,0.00000000e+00
3.30000000e-12,7.21678090e-01,2.31000000e-01,0.00000000e+00,0.00000000e+00
3.40000000e-12,7.22156757e-01,2.38000000e-01,0.00000000e+00,0.00000000e+00
3.50000000e-12,7.22635424e-01,2.45000000e-01,0.00000000e+00,0.00000000e+00
3.60000000e-12,7.22981631e-01,2.52000000e-01,0.00000000e+00,0.00000000e+00
3.70000000e-12,7.22681123e-01,2.59000000e-01,0.00000000e+00,0.00000000e+00
3.80000000e-12,7.22380614e-01,2.66000000e-01,0.00000000e+00,0.00000000e+00
3.90000000e-12,7.22080106e-01,2.73000000e-01,0.00000000e+00,0.00000000e+00
4.00000000e-12,7.21779598e-01,2.80000000e-01,0.00000000e+00,0.00000000e+00
4.10000000e-12,7.21479090e-01,2.87000000e-01,0.00000000e+00,0.00000000e+00
4.20000000e-12,7.21178581e-01,2.94000000e-01,0.00000000e+00,0.00000000e+00
4.30000000e-12,7.20878073e-01,3.01000000e-01,0.00000000e+00,0.00000000e+00
4.40000000e-12,7.20577565e-01,3.08000000e-01,0.00000000e+00,0.00000000e+00
4.50000000e-12,7.20277057e-01,3.15000000e-01,0.00000000e+00,0.00000000e+00
4.60000000e-12,7.19976548e-01,3.22000000e-01,0.00000000e+00,0.00000000e+00
4.70000000e-12,7.18726202e-01,3.29000000e-01,0.00000000e+00,0.00000000e+00
4.80000000e-12,7.17317146e-01,3.36000000e-01,0.00000000e+00,0.00000000e+00
4.90000000e-12,7.15788638e-01,3.43000000e-01,0.00000000e+00,0.00000000e+00
5.00000000e-12,7.13665280e-01,3.50000000e-01,0.00000000e+00,0.00000000e+00
5.10000000e-12,7.11541922e-01,3.57000000e-01,0.00000000e+00,0.00000000e+00
5.20000000e-12,7.09278334e-01,3.64000000e-01,0.00000000e+00,0.00000000e+00
5.30000000e-12,7.06272246e-01,3.71000000e-01,0.00000000e+00,0.00000000e+00
5.40000000e-12,7.03266157e-01,3.78000000e-01,0.00000000e+00,0.00000000e+00
5.50000000e-12,7.00003868e-01,3.85000000e-01,0.00000000e+00,0.00000000e+00
5.60000000e-12,6.96060310e-01,3.92000000e-01,0.00000000e+00,0.00000000e+00
5.70000000e-12,6.92116753e-01,3.99000000e-01,0.00000000e+00,0.00000000e+00
5.80000000e-12,6.87795675e-01,4.06000000e-01,0.00000000e+00,0.00000000e+00
5.90000000e-12,6.82878426e-01,4.13000000e-01,0.00000000e+00,0.00000000e+00
6.00000000e-12,6.77961177e-01,4.20000000e-01,0.00000000e+00,0.00000000e+00
6.10000000e-12,6.72541879e-01,4.27000000e-01,0.00000000e+00,0.00000000e+00
6.20000000e-12,6.66624832e-01,4.34000000e-01,0.00000000e+00,0.00000000e+00
6.30000000e-12,6.60707785e-01,4.41000000e-01,0.00000000e+00,0.00000000e+00
6.40000000e-12,6.54159250e-01,4.48000000e-01,0.00000000e+00,0.00000000e+00
6.50000000e-12,6.47218025e-01,4.55000000e-01,0.00000000e+00,0.00000000e+00
6.60000000e-12,6.40276799e-01,4.62000000e-01,0.00000000e+00,0.00000000e+00
6.70000000e-12,6.32564043e-01,4.69000000e-01,0.00000000e+00,0.00000000e+00
6.80000000e-12,6.24567387e-01,4.76000000e-01,0.00000000e+00,0.00000000e+00
6.90000000e-12,6.16570731e-01,4.83000000e-01,0.00000000e+00,0.00000000e+00
7.00000000e-12,6.07643379e-01,4.90000000e-01,0.00000000e+00,0.00000000e+00
7.10000000e-12,5.98545881e-01,4.97000000e-01,0.00000000e+00,0.00000000e+00
7.20000000e-12,5.89448383e-01,5.04000000e-01,0.00000000e+00,0.00000000e+00
7.30000000e-12,5.79233332e-01,5.11000000e-01,0.00000000e+00,0.00000000e+00
7.40000000e-12,5.68971560e-01,5.18000000e-01,0.00000000e+00,0.00000000e+00
7.50000000e-12,5.58616799e-01,5.25000000e-01,0.00000000e+00,0.00000000e+00
7.60000000e-12,5.47103514e-01,5.32000000e-01,0.00000000e+00,0.00000000e+00
7.70000000e-12,5.35590229e-01,5.39000000e-01,0.00000000e+00,0.00000000e+00
7.80000000e-12,5.23819397e-01,5.46000000e-01,0.00000000e+00,0.00000000e+00
7.90000000e-12,5.10941487e-01,5.53000000e-01,0.00000000e+00,0.00000000e+00
8.00000000e-12,4.98063576e-01,5.60000000e-01,0.00000000e+00,0.00000000e+00
8.10000000e-12,4.84728235e-01,5.67000000e-01,0.00000000e+00,0.00000000e+00
8.20000000e-12,4.70341453e-01,5.74000000e-01,0.00000000e+00,0.00000000e+00
8.30000000e-12,4.55954671e-01,5.81000000e-01,0.00000000e+00,0.00000000e+00
8.40000000e-12,4.40871040e-01,5.88000000e-01,0.00000000e+00,0.00000000e+00
8.50000000e-12,4.24815521e-01,5.95000000e-01,0.00000000e+00,0.00000000e+00
8.60000000e-12,4.08760002e-01,6.02000000e-01,0.00000000e+00,0.00000000e+00
8.70000000e-12,3.91774986e-01,6.09000000e-01,0.00000000e+00,0.00000000e+00
8.80000000e-12,3.73972360e-01,6.16000000e-01,0.00000000e+00,0.00000000e+00
8.90000000e-12,3.56169734e-01,6.23000000e-01,0.00000000e+00,0.00000000e+00
9.00000000e-12,3.37434675e-01,6.30000000e-01,0.00000000e+00,0.00000000e+00
9.10000000e-12,3.18189660e-01,6.37000000e-01,0.00000000e+00,0.00000000e+00
9.20000000e-12,2.98944646e-01,6.44000000e-01,0.00000000e+00,0.00000000e+00
9.30000000e-12,2.79476588e-01,6.51000000e-01,0.00000000e+00,0.00000000e+00
9.40000000e-12,2.59938436e-01,6.58000000e-01,0.00000000e+00,0.00000000e+00
9.50000000e-12,2.40400283e-01,6.65000000e-01,0.00000000e+00,0.00000000e+00
9.60000000e-12,2.22235632e-01,6.72000000e-01,0.00000000e+00,0.00000000e+00
9.70000000e-12,2.04266638e-01,6.79000000e-01,0.00000000e+00,0.00000000e+00
9.80102589e-12,1.86113301e-01,6.86071813e-01,0.00000000e+00,0.00000000e+00
9.90000000e-12,1.70819681e-01,6.93000000e-01,0.00000000e+00,0.00000000e+00
1.00000000e-11,1.55367539e-01,7.00000000e-01,0.00000000e+00,0.00000000e+00
1.01000000e-11,1.39276717e-01,7.00000000e-01,0.00000000e+00,0.00000000e+00
1.02000000e-11,1.25273757e-01,7.00000000e-01,0.00000000e+00,0.00000000e+00
1.03000000e-11,1.12717838e-01,7.00000000e-01,0.00000000e+00,0.00000000e+00
1.04000000e-11,1.01700516e-01,7.00000000e-01,0.00000000e+00,0.00000000e+00
1.05000000e-11,9.24117007e-02,7.00000000e-01,0.00000000e+00,0.00000000e+00
1.06000000e-11,8.44121392e-02,7.00000000e-01,0.00000000e+00,0.00000000e+00
1.07000000e-11,7.74032201e-02,7.00000000e-01,0.00000000e+00,0.00000000e+00
1.08000000e-11,7.13621171e-02,7.00000000e-01,0.00000000e+00,0.00000000e+00
1.09000000e-11,6.64864143e-02,7.00000000e-01,0.00000000e+00,0.00000000e+00
1.10000000e-11,6.16107115e-02,7.00000000e-01,0.00000000e+00,0.00000000e+00
1.11000000e-11,5.78843357e-02,7.00000000e-01,0.00000000e+00,0.00000000e+00
1.12000000e-11,5.48531740e-02,7.00000000e-01,0.00000000e+00,0.00000000e+00
1.13000000e-11,5.18220123e-02,7.00000000e-01,0.00000000e+00,0.00000000e+00
1.14000000e-11,4.87908505e-02,7.00000000e-01,0.00000000e+00,0.00000000e+00
1.15000000e-11,4.57596888e-02,7.00000000e-01,0.00000000e+00,0.00000000e+00
1.16000000e-11,4.33247380e-02,7.00000000e-01,0.00000000e+00,0.00000000e+00
1.17000000e-11,4.16364206e-02,7.00000000e-01,0.00000000e+00,0.00000000e+00
1.18000000e-11,3.99481032e-02,7.00000000e-01,0.00000000e+00,0.00000000e+00
1.19000000e-11,3.82597858e-02,7.00000000e-01,0.00000000e+00,0.00000000e+00
1.20000000e-11,3.65714685e-02,7.00000000e-01,0.00000000e+00,0.00000000e+00
1.21000000e-11,3.50323128e-02,7.00000000e-01,0.00000000e+00,0.00000000e+00
1.22000000e-11,3.39071130e-02,7.00000000e-01,0.00000000e+00,0.00000000e+00
1.23000000e-11,3.27819132e-02,7.00000000e-01,0.00000000e+00,0.00000000e+00
1.24000000e-11,3.16567134e-02,7.00000000e-01,0.00000000e+00,0.00000000e+00
1.25000000e-11,3.05315135e-02,7.00000000e-01,0.00000000e+00,0.00000000e+00
1.26000000e-11,2.94309484e-02,7.00000000e-01,0.00000000e+00,0.00000000e+00
1.27000000e-11,2.85929322e-02,7.00000000e-01,0.00000000e+00,0.00000000e+00
1.28000000e-11,2.77549160e-02,7.00000000e-01,0.00000000e+00,0.00000000e+00
1.29000000e-11,2.69168998e-02,7.00000000e-01,0.00000000e+00,0.00000000e+00
1.30000000e-11,2.60788836e-02,7.00000000e-01,0.00000000e+00,0.00000000e+00
1.31000000e-11,2.52408674e-02,7.00000000e-01,0.00000000e+00,0.00000000e+00
1.32000000e-11,2.45644198e-02,7.00000000e-01,0.00000000e+00,0.00000000e+00
1.33000000e-11,2.39046027e-02,7.00000000e-01,0.00000000e+00,0.00000000e+00
1.34000000e-11,2.32447855e-02,7.00000000e-01,0.00000000e+00,0.00000000e+00
1.35000000e-11,2.25849684e-02,7.00000000e-01,0.00000000e+00,0.00000000e+00
1.36000000e-11,2.19251513e-02,7.00000000e-01,0.00000000e+00,0.00000000e+00
1.37000000e-11,2.13565283e-02,7.00000000e-01,0.00000000e+00,0.00000000e+00
1.38000000e-11,2.08220520e-02,7.00000000e-01,0.00000000e+00,0.00000000e+00
1.39000000e-11,2.02875757e-02,7.00000000e-01,0.00000000e+00,0.00000000e+00
1.40000000e-11,1.97530994e-02,7.00000000e-01,0.00000000e+00,0.00000000e+00
1.41000000e-11,1.92186231e-02,7.00000000e-01,0.00000000e+00,0.00000000e+00
1.42000000e-11,1.87543225e-02,7.00000000e-01,0.00000000e+00,0.00000000e+00
1.43000000e-11,1.83477957e-02,7.00000000e-01,0.00000000e+00,0.00000000e+00
1.44000000e-11,1.79412689e-02,7.00000000e-01,0.00000000e+00,0.00000000e+00
1.45000000e-11,1.75347421e-02,7.00000000e-01,0.00000000e+00,0.00000000e+00
1.46000000e-11,1.71282152e-02,7.00000000e-01,0.00000000e+00,0.00000000e+00
1.47000000e-11,1.67216884e-02,7.00000000e-01,0.00000000e+00,0.00000000e+00
1.48000000e-11,1.63151616e-02,7.00000000e-01,0.00000000e+00,0.00000000e+00
1.49000000e-11,1.59086348e-02,7.00000000e-01,0.00000000e+00,0.00000000e+00
1.50000000e-11,1.55021080e-02,7.00000000e-01,0.00000000e+00,0.00000000e+00
1.51000000e-11,1.50955811e-02,7.00000000e-01,0.00000000e+00,0.00000000e+00
1.52000000e-11,1.47185730e-02,7.00000000e-01,0.00000000e+00,0.00000000e+00
1.53000000e-11,1.44672006e-02,7.00000000e-01,0.00000000e+00,0.00000000e+00
1.54000000e-11,1.42158282e-02,7.00000000e-01,0.00000000e+00,0.00000000e+00
1.55000000e-11,1.39644558e-02,7.00000000e-01,0.00000000e+00,0.00000000e+00
1.56000000e-11,1.37130834e-02,7.00000000e-01,0.00000000e+00,0.00000000e+00
1.57000000e-11,1.34617110e-02,7.00000000e-01,0.00000000e+00,0.00000000e+00
1.58000000e-11,1.32103386e-02,7.00000000e-01,0.00000000e+00,0.00000000e+00
1.59000000e-11,1.29589662e-02,7.00000000e-01,0.00000000e+00,0.00000000e+00
1.60000000e-11,1.27075938e-02,7.00000000e-01,0.00000000e+00,0.00000000e+00
1.61000000e-11,1.24562214e-02,7.00000000e-01,0.00000000e+00,0.00000000e+00
1.62000000e-11,1.22048490e-02,7.00000000e-01,0.00000000e+00,0.00000000e+00
1.63000000e-11,1.19534766e-02,7.00000000e-01,0.00000000e+00,0.00000000e+00
1.64000000e-11,1.17021042e-02,7.00000000e-01,0.00000000e+00,0.00000000e+00
1.65000000e-11,1.14507319e-02,7.00000000e-01,0.00000000e+00,0.00000000e+00
1.66000000e-11,1.11993595e-02,7.00000000e-01,0.00000000e+00,0.00000000e+00
1.67000000e-11,1.09479871e-02,7.00000000e-01,0.00000000e+00,0.00000000e+00
1.68000000e-11,1.06966147e-02,7.00000000e-01,0.00000000e+00,0.00000000e+00
1.69000000e-11,1.04452423e-02,7.00000000e-01,0.00000000e+00,0.00000000e+00
1.70000000e-11,1.01938699e-02,7.00000000e-01,0.00000000e+00,0.00000000e+00
1.71000000e-11,9.94249750e-03,7.00000000e-01,0.00000000e+00,0.00000000e+00
1.72000000e-11,9.69112511e-03,7.00000000e-01,0.00000000e+00,0.00000000e+00
1.73000000e-11,9.49368426e-03,7.00000000e-01,0.00000000e+00,0.00000000e+00
1.74000000e-11,9.35613190e-03,7.00000000e-01,0.00000000e+00,0.00000000e+00
1.75000000e-11,9.21857955e-03,7.00000000e-01,0.00000000e+00,0.00000000e+00
1.76000000e-11,9.08102719e-03,7.00000000e-01,0.00000000e+00,0.00000000e+00
1.77000000e-11,8.94347484e-03,7.00000000e-01,0.00000000e+00,0.00000000e+00
1.78000000e-11,8.80592249e-03,7.00000000e-01,0.00000000e+00,0.00000000e+00
1.79000000e-11,8.66837013e-03,7.00000000e-01,0.00000000e+00,0.00000000e+00
1.80000000e-11,8.53081778e-03,7.00000000e-01,0.00000000e+00,0.00000000e+00
1.81000000e-11,8.39326542e-03,7.00000000e-01,0.00000000e+00,0.00000000e+00
1.82000000e-11,8.25571307e-03,7.00000000e-01,0.00000000e+00,0.00000000e+00
1.83000000e-11,8.11816071e-03,7.00000000e-01,0.00000000e+00,0.00000000e+00
1.84000000e-11,7.98060836e-03,7.00000000e-01,0.00000000e+00,0.00000000e+00
1.85000000e-11,7.84305600e-03,7.00000000e-01,0.00000000e+00,0.00000000e+00
1.86000000e-11,7.70550365e-03,7.00000000e-01,0.00000000e+00,0.00000000e+00
1.87000000e-11,7.56795129e-03,7.00000000e-01,0.00000000e+00,0.00000000e+00
1.88000000e-11,7.43039894e-03,7.00000000e-01,0.00000000e+00,0.00000000e+00
1.89000000e-11,7.29284658e-03,7.00000000e-01,0.00000000e+00,0.00000000e+00
1.90000000e-11,7.15529423e-03,7.00000000e-01,0.00000000e+00,0.00000000e+00
1.91000000e-11,7.01774187e-03,7.00000000e-01,0.00000000e+00,0.00000000e+00
1.92000000e-11,6.88018952e-03,7.00000000e-01,0.00000000e+00,0.00000000e+00
1.93000000e-11,6.74263716e-03,7.00000000e-01,0.00000000e+00,0.00000000e+00
1.94000000e-11,6.64504004e-03,7.00000000e-01,0.00000000e+00,0.00000000e+00
1.95000000e-11,6.56024012e-03,7.00000000e-01,0.00000000e+00,0.00000000e+00
1.96000000e-11,6.47544020e-03,7.00000000e-01,0.00000000e+00,0.00000000e+00
1.97000000e-11,6.39064028e-03,7.00000000e-01,0.00000000e+00,0.00000000e+00
1.98000000e-11,6.30584036e-03,7.00000000e-01,0.00000000e+00,0.00000000e+00
1.99000000e-11,6.22104045e-03,7.00000000e-01,0.00000000e+00,0.00000000e+00
2.00000000e-11,6.13624053e-03,7.00000000e-01,0.00000000e+00,0.00000000e+00
2.01000000e-11,6.05144061e-03,7.00000000e-01,0.00000000e+00,0.00000000e+00
2.02000000e-11,5.96664069e-03,7.00000000e-01,0.00000000e+00,0.00000000e+00
2.03000000e-11,5.88184077e-03,7.00000000e-01,0.00000000e+00,0.00000000e+00
2.04000000e-11,5.79704085e-03,7.00000000e-01,0.00000000e+00,0.00000000e+00
2.05000000e-11,5.71224094e-03,7.00000000e-01,0.00000000e+00,0.00000000e+00
2.06000000e-11,5.62744102e-03,7.00000000e-01,0.00000000e+00,0.00000000e+00
2.07000000e-11,5.54264110e-03,7.00000000e-01,0.00000000e+00,0.00000000e+00
2.08000000e-11,5.45784118e-03,7.00000000e-01,0.00000000e+00,0.00000000e+00
2.09000000e-11,5.37304126e-03,7.00000000e-01,0.00000000e+00,0.00000000e+00
2.10000000e-11,5.28824134e-03,7.00000000e-01,0.00000000e+00,0.00000000e+00
2.11000000e-11,5.20344142e-03,7.00000000e-01,0.00000000e+00,0.00000000e+00
2.12000000e-11,5.11864151e-03,7.00000000e-01,0.00000000e+00,0.00000000e+00
2.13000000e-11,5.03384159e-03,7.00000000e-01,0.00000000e+00,0.00000000e+00
2.14000000e-11,4.95026937e-03,7.00000000e-01,0.00000000e+00,0.00000000e+00
2.15000000e-11,4.89542164e-03,7.00000000e-01,0.00000000e+00,0.00000000e+00
2.16000000e-11,4.84057392e-03,7.00000000e-01,0.00000000e+00,0.00000000e+00
2.17000000e-11,4.78572620e-03,7.00000000e-01,0.00000000e+00,0.00000000e+00
2.18000000e-11,4.73087847e-03,7.00000000e-01,0.00000000e+00,0.00000000e+00
2.19000000e-11,4.67603075e-03,7.00000000e-01,0.00000000e+00,0.00000000e+00
2.20000000e-11,4.62118302e-03,7.00000000e-01,0.00000000e+00,0.00000000e+00
2.21000000e-11,4.56633530e-03,7.00000000e-01,0.00000000e+00,0.00000000e+00
2.22000000e-11,4.51148758e-03,7.00000000e-01,0.00000000e+00,0.00000000e+00
2.23000000e-11,4.45663985e-03,7.00000000e-01,0.00000000e+00,0.00000000e+00
2.24000000e-11,4.40179213e-03,7.00000000e-01,0.00000000e+00,0.00000000e+00
2.25000000e-11,4.34694441e-03,7.00000000e-01,0.00000000e+00,0.00000000e+00
2.26000000e-11,4.29209668e-03,7.00000000e-01,0.00000000e+00,0.00000000e+00
2.27000000e-11,4.23724896e-03,7.00000000e-01,0.00000000e+00,0.00000000e+00
2.28000000e-11,4.18240123e-03,7.00000000e-01,0.00000000e+00,0.00000000e+00
2.29000000e-11,4.12755351e-03,7.00000000e-01,0.00000000e+00,0.00000000e+00
2.30000000e-11,4.07270579e-03,7.00000000e-01,0.00000000e+00,0.00000000e+00
2.31000000e-11,4.01785806e-03,7.00000000e-01,0.00000000e+00,0.00000000e+00
2.32000000e-11,3.96301034e-03,7.00000000e-01,0.00000000e+00,0.00000000e+00
2.33000000e-11,3.90816262e-03,7.00000000e-01,0.00000000e+00,0.00000000e+00
2.34000000e-11,3.85331489e-03,7.00000000e-01,0.00000000e+00,0.00000000e+00
2.35000000e-11,3.80398325e-03,7.00000000e-01,0.00000000e+00,0.00000000e+00
2.36000000e-11,3.76613073e-03,7.00000000e-01,0.00000000e+00,0.00000000e+00
2.37000000e-11,3.72827820e-03,7.00000000e-01,0.00000000e+00,0.00000000e+00
2.38000000e-11,3.69042568e-03,7.00000000e-01,0.00000000e+00,0.00000000e+00
2.39000000e-11,3.65257316e-03,7.00000000e-01,0.00000000e+00,0.00000000e+00
2.40000000e-11,3.61472063e-03,7.00000000e-01,0.00000000e+00,0.00000000e+00
2.41000000e-11,3.57686811e-03,7.00000000e-01,0.00000000e+00,0.00000000e+00
2.42000000e-11,3.53901558e-03,7.00000000e-01,0.00000000e+00,0.00000000e+00
2.43000000e-11,3.50116306e-03,7.00000000e-01,0.00000000e+00,0.00000000e+00
2.44000000e-11,3.46331054e-03,7.00000000e-01,0.00000000e+00,0.00000000e+00
2.45000000e-11,3.42545801e-03,7.00000000e-01,0.00000000e+00,0.00000000e+00
2.46000000e-11,3.38760549e-03,7.00000000e-01,0.00000000e+00,0.00000000e+00
2.47000000e-11,3.34975297e-03,7.00000000e-01,0.00000000e+00,0.00000000e+00
2.48000000e-11,3.31190044e-03,7.00000000e-01,0.00000000e+00,0.00000000e+00
2.49000000e-11,3.27404792e-03,7.00000000e-01,0.00000000e+00,0.00000000e+00
2.50000000e-11,3.23619540e-03,7.00000000e-01,0.00000000e+00,0.00000000e+00
2.51000000e-11,3.19834287e-03,7.00000000e-01,0.00000000e+00,0.00000000e+00
2.52000000e-11,3.16049035e-03,7.00000000e-01,0.00000000e+00,0.00000000e+00
2.53000000e-11,3.12263783e-03,7.00000000e-01,0.00000000e+00,0.00000000e+00
2.54000000e-11,3.08478530e-03,7.00000000e-01,0.00000000e+00,0.00000000e+00
2.55000000e-11,3.04693278e-03,7.00000000e-01,0.00000000e+00,0.00000000e+00
2.56000000e-11,3.01762992e-03,7.00000000e-01,0.00000000e+00,0.00000000e+00
2.57000000e-11,2.99383598e-03,7.00000000e-01,0.00000000e+00,0.00000000e+00
2.58000000e-11,2.97004203e-03,7.00000000e-01,0.00000000e+00,0.00000000e+00
2.59000000e-11,2.94624809e-03,7.00000000e-01,0.00000000e+00,0.00000000e+00
2.60000000e-11,2.92245415e-03,7.00000000e-01,0.00000000e+00,0.00000000e+00
2.61000000e-11,2.89866021e-03,7.00000000e-01,0.00000000e+00,0.00000000e+00
2.62000000e-11,2.87486626e-03,7.00000000e-01,0.00000000e+00,0.00000000e+00
2.63000000e-11,2.85107232e-03,7.00000000e-01,0.00000000e+00,0.00000000e+00
2.64000000e-11,2.82727838e-03,7.00000000e-01,0.00000000e+00,0.00000000e+00
2.65000000e-11,2.80348444e-03,7.00000000e-01,0.00000000e+00,0.00000000e+00
