TIME,V(OUT),V(IN)
0.00000000e+00,6.99998628e-01,0.00000000e+00
1.00000000e-36,6.99998628e-01,0.00000000e+00
3.00000000e-36,6.99998628e-01,0.00000000e+00
7.00000000e-36,6.99998628e-01,0.00000000e+00
1.50000000e-35,6.99998628e-01,0.00000000e+00
3.10000000e-35,6.99998628e-01,0.00000000e+00
6.30000000e-35,6.99998628e-01,0.00000000e+00
1.27000000e-34,6.99998628e-01,0.00000000e+00
2.55000000e-34,6.99998628e-01,0.00000000e+00
5.11000000e-34,6.99998628e-01,0.00000000e+00
1.02300000e-33,6.99998628e-01,0.00000000e+00
2.04700000e-33,6.99998628e-01,0.00000000e+00
4.09500000e-33,6.99998628e-01,0.00000000e+00
8.19100000e-33,6.99998628e-01,0.00000000e+00
1.63830000e-32,6.99998628e-01,0.00000000e+00
3.27670000e-32,6.99998628e-01,0.00000000e+00
6.55350000e-32,6.99998628e-01,0.00000000e+00
1.31071000e-31,6.99998628e-01,0.00000000e+00
2.62143000e-31,6.99998628e-01,0.00000000e+00
5.24287000e-31,6.99998628e-01,0.00000000e+00
1.04857500e-30,6.99998628e-01,0.00000000e+00
2.09715100e-30,6.99998628e-01,0.00000000e+00
4.19430300e-30,6.99998628e-01,0.00000000e+00
8.38860700e-30,6.99998628e-01,0.00000000e+00
1.67772150e-29,6.99998628e-01,0.00000000e+00
3.35544310e-29,6.99998628e-01,0.00000000e+00
6.71088630e-29,6.99998628e-01,0.00000000e+00
1.34217727e-28,6.99998628e-01,0.00000000e+00
2.68435455e-28,6.99998628e-01,0.00000000e+00
5.36870911e-28,6.99998628e-01,0.00000000e+00
1.07374182e-27,6.99998628e-01,0.00000000e+00
2.14748365e-27,6.99998628e-01,0.00000000e+00
4.29496730e-27,6.99998628e-01,0.00000000e+00
8.58993459e-27,6.99998628e-01,0.00000000e+00
1.71798692e-26,6.99998628e-01,0.00000000e+00
3.43597384e-26,6.99998628e-01,0.00000000e+00
6.87194767e-26,6.99998628e-01,0.00000000e+00
1.37438953e-25,6.99998628e-01,0.00000000e+00
2.74877907e-25,6.99998628e-01,0.00000000e+00
5.49755814e-25,6.99998628e-01,0.00000000e+00
1.09951163e-24,6.99998628e-01,0.00000000e+00
2.19902326e-24,6.99998628e-01,0.00000000e+00
4.39804651e-24,6.99998628e-01,0.00000000e+00
8.79609302e-24,6.99998628e-01,0.00000000e+00
1.75921860e-23,6.99998628e-01,0.00000000e+00
3.51843721e-23,6.99998628e-01,0.00000000e+00
7.03687442e-23,6.99998628e-01,0.00000000e+00
1.40737488e-22,6.99998628e-01,0.00000000e+00
2.81474977e-22,6.99998628e-01,0.00000000e+00
5.62949953e-22,6.99998628e-01,0.00000000e+00
1.12589991e-21,6.99998628e-01,0.00000000e+00
2.25179981e-21,6.99998628e-01,0.00000000e+00
4.50359963e-21,6.99998628e-01,0.00000000e+00
9.00719925e-21,6.99998628e-01,0.00000000e+00
1.80143985e-20,6.99998628e-01,0.00000000e+00
3.60287970e-20,6.99998628e-01,0.00000000e+00
7.20575940e-20,6.99998628e-01,0.00000000e+00
1.44115188e-19,6.99998628e-01,0.00000000e+00
2.88230376e-19,6.99998628e-01,0.00000000e+00
5.76460752e-19,6.99998628e-01,0.00000000e+00
1.15292150e-18,6.99998628e-01,0.00000000e+00
2.30584301e-18,6.99998628e-01,0.00000000e+00
4.61168602e-18,6.99998628e-01,0.00000000e+00
9.22337204e-18,6.99998628e-01,0.00000000e+00
1.84467441e-17,6.99998628e-01,0.00000000e+00
3.68934881e-17,6.99998628e-01,0.00000000e+00
7.37869763e-17,6.99998628e-01,0.00000000e+00
1.47573953e-16,6.99998628e-01,0.00000000e+00
2.95147905e-16,6.99998628e-01,0.00000000e+00
5.90295810e-16,6.99998628e-01,0.00000000e+00
1.18059162e-15,6.99998628e-01,0.00000000e+00
2.36118324e-15,6.99998628e-01,0.00000000e+00
4.72236648e-15,6.99998628e-01,0.00000000e+00
9.44473297e-15,6.99998628e-01,0.00000000e+00
1.88894659e-14,6.99998628e-01,0.00000000e+00
3.77789319e-14,6.99998628e-01,0.00000000e+00
7.55578637e-14,6.99998628e-01,0.00000000e+00
1.51115727e-13,6.99998628e-01,0.00000000e+00
3.02231455e-13,6.99998628e-01,0.00000000e+00
6.04462910e-13,6.99998628e-01,0.00000000e+00
1.20892582e-12,6.99998628e-01,0.00000000e+00
2.41785164e-12,6.99998628e-01,0.00000000e+00
4.83570328e-12,6.99998628e-01,0.00000000e+00
9.67140656e-12,6.99998628e-01,0.00000000e+00
1.93428131e-11,6.99998628e-01,0.00000000e+00
2.93428131e-11,6.99998628e-01,0.00000000e+00
3.93428131e-11,6.99998628e-01,0.00000000e+00
4.93428131e-11,6.99998628e-01,0.00000000e+00
5.93428131e-11,6.99998628e-01,0.00000000e+00
6.93428131e-11,6.99998628e-01,0.00000000e+00
7.93428131e-11,6.99998628e-01,0.00000000e+00
8.93428131e-11,6.99998628e-01,0.00000000e+00
9.93428131e-11,6.99998628e-01,0.00000000e+00
1.00000000e-10,6.99998628e-01,0.00000000e+00
1.00041074e-10,7.02970709e-01,2.87519263e-03
1.00082148e-10,7.05572307e-01,5.75038525e-03
1.00123223e-10,7.08000878e-01,8.62557788e-03
1.00205371e-10,7.11961452e-01,1.43759631e-02
1.00287519e-10,7.14958750e-01,2.01263484e-02
1.00369668e-10,7.17241333e-01,2.58767336e-02
1.00533964e-10,7.20396287e-01,3.73775042e-02
1.00862558e-10,7.23681674e-01,6.03790452e-02
1.01519745e-10,7.26361441e-01,1.06382127e-01
1.02176932e-10,7.28137212e-01,1.52385209e-01
1.02834118e-10,7.29761034e-01,1.98388291e-01
1.03395341e-10,7.28662519e-01,2.37673847e-01
1.03661042e-10,7.26851696e-01,2.56272933e-01
1.03926743e-10,7.23965176e-01,2.74872019e-01
1.04013057e-10,7.22369984e-01,2.80914018e-01
1.04099372e-10,7.20628294e-01,2.86956016e-01
1.04272000e-10,7.16173653e-01,2.99040013e-01
1.04444629e-10,7.10289939e-01,3.11124010e-01
1.04617257e-10,7.02762399e-01,3.23208006e-01
1.04789886e-10,6.93302818e-01,3.35292003e-01
1.04962514e-10,6.81485540e-01,3.47376000e-01
1.05135143e-10,6.66616277e-01,3.59459997e-01
1.05307771e-10,6.47465432e-01,3.71543994e-01
1.05480400e-10,6.21890887e-01,3.83627990e-01
1.05635766e-10,5.90961836e-01,3.94503587e-01
1.05773261e-10,5.56217437e-01,4.04128289e-01
1.05897007e-10,5.19235500e-01,4.12790520e-01
1.06020754e-10,4.77340773e-01,4.21452751e-01
1.06144500e-10,4.30996907e-01,4.30114983e-01
1.06268246e-10,3.80714575e-01,4.38777214e-01
1.06391992e-10,3.27237685e-01,4.47439445e-01
1.06515738e-10,2.71903645e-01,4.56101677e-01
1.06635089e-10,2.18969994e-01,4.64456247e-01
1.06754440e-10,1.70604374e-01,4.72810818e-01
1.06861856e-10,1.33467728e-01,4.80329931e-01
1.06958530e-10,1.06078088e-01,4.87097134e-01
1.07055205e-10,8.42750124e-02,4.93864336e-01
1.07151879e-10,6.74165428e-02,5.00631538e-01
1.07248553e-10,5.46700498e-02,5.07398740e-01
1.07345228e-10,4.51914635e-02,5.14165942e-01
1.07441902e-10,3.82218509e-02,5.20933145e-01
1.07538576e-10,3.31300144e-02,5.27700347e-01
1.07635251e-10,2.94184085e-02,5.34467549e-01
1.07731925e-10,2.67089431e-02,5.41234751e-01
1.07925274e-10,2.31906316e-02,5.54769155e-01
1.08311971e-10,1.99820539e-02,5.81837964e-01
1.09085365e-10,1.80768981e-02,6.35975582e-01
1.09781421e-10,1.73438072e-02,6.84699438e-01
1.10000000e-10,1.71232192e-02,7.00000000e-01
1.10035933e-10,1.45565937e-02,7.00000000e-01
1.10065236e-10,1.27262477e-02,7.00000000e-01
1.10094540e-10,1.10190422e-02,7.00000000e-01
1.10153147e-10,8.24776029e-03,7.00000000e-01
1.10211753e-10,6.17277988e-03,7.00000000e-01
1.10328967e-10,3.41368041e-03,7.00000000e-01
1.10563394e-10,9.19681718e-04,7.00000000e-01
1.11032249e-10,-6.37291027e-05,7.00000000e-01
1.11501104e-10,5.69493073e-06,7.00000000e-01
1.11969958e-10,7.85131665e-07,7.00000000e-01
1.12438813e-10,1.13231804e-06,7.00000000e-01
1.13376522e-10,1.10033843e-06,7.00000000e-01
1.15251941e-10,1.11521224e-06,7.00000000e-01
1.19002778e-10,1.10470590e-06,7.00000000e-01
1.26504452e-10,1.11359031e-06,7.00000000e-01
1.41507800e-10,1.10540980e-06,7.00000000e-01
1.49190630e-10,1.10928642e-06,7.00000000e-01
1.49430718e-10,1.10934200e-06,7.00000000e-01
1.49910895e-10,1.10939299e-06,7.00000000e-01
1.49970917e-10,1.10939211e-06,7.00000000e-01
1.50090961e-10,2.03081790e-03,7.00000000e-01
1.50211006e-10,7.71775708e-03,7.00000000e-01
1.50331050e-10,1.57931102e-02,7.00000000e-01
1.50451094e-10,2.49350913e-02,7.00000000e-01
1.50691182e-10,4.39420446e-02,7.00000000e-01
1.50931271e-10,6.26389841e-02,7.00000000e-01
1.51171359e-10,8.04407569e-02,7.00000000e-01
1.51411448e-10,9.73458078e-02,7.00000000e-01
1.51651536e-10,1.13452550e-01,7.00000000e-01
1.52131713e-10,1.43654904e-01,7.00000000e-01
1.52611890e-10,1.71537814e-01,7.00000000e-01
1.53092067e-10,1.97407043e-01,7.00000000e-01
1.53572244e-10,2.21380588e-01,7.00000000e-01
1.54052421e-10,2.43487526e-01,7.00000000e-01
1.54532597e-10,2.63728199e-01,7.00000000e-01
1.55012774e-10,2.82109508e-01,7.00000000e-01
1.55492951e-10,2.98664457e-01,7.00000000e-01
1.55973128e-10,3.13449003e-01,7.00000000e-01
1.56453305e-10,3.26542065e-01,7.00000000e-01
1.56933482e-10,3.38041157e-01,7.00000000e-01
1.57413659e-10,3.48057992e-01,7.00000000e-01
1.57893835e-10,3.56714113e-01,7.00000000e-01
1.58374012e-10,3.64136599e-01,7.00000000e-01
1.58854189e-10,3.70454014e-01,7.00000000e-01
1.59334366e-10,3.75792811e-01,7.00000000e-01
1.60294720e-10,3.84051741e-01,7.00000000e-01
1.61255073e-10,3.89714582e-01,7.00000000e-01
1.62215427e-10,3.93519779e-01,7.00000000e-01
1.63175781e-10,3.96032612e-01,7.00000000e-01
1.63934207e-10,3.97239342e-01,7.00000000e-01
1.64692633e-10,3.98259579e-01,7.00000000e-01
1.64787437e-10,3.98359126e-01,7.00000000e-01
1.64977043e-10,3.98549525e-01,7.00000000e-01
1.65011772e-10,3.98440969e-01,7.00000000e-01
1.65081230e-10,3.97406489e-01,7.00000000e-01
1.65150687e-10,3.94804078e-01,7.00000000e-01
1.65220145e-10,3.90766270e-01,7.00000000e-01
1.65289602e-10,3.85425246e-01,7.00000000e-01
1.65359060e-10,3.78913763e-01,7.00000000e-01
1.65428518e-10,3.71366347e-01,7.00000000e-01
1.65497975e-10,3.62919836e-01,7.00000000e-01
1.65636890e-10,3.43943342e-01,7.00000000e-01
1.65914721e-10,3.01659923e-01,7.00000000e-01
1.66147402e-10,2.66106518e-01,7.00000000e-01
1.66202887e-10,2.57988362e-01,7.00000000e-01
1.66313857e-10,2.42361215e-01,7.00000000e-01
1.66535798e-10,2.14468940e-01,7.00000000e-01
1.66757738e-10,1.91081969e-01,7.00000000e-01
1.66979679e-10,1.71783641e-01,7.00000000e-01
1.67201620e-10,1.55846285e-01,7.00000000e-01
1.67423561e-10,1.42522590e-01,7.00000000e-01
1.67645501e-10,1.31183324e-01,7.00000000e-01
1.67867442e-10,1.21351289e-01,7.00000000e-01
1.68089383e-10,1.12683894e-01,7.00000000e-01
1.68533264e-10,9.79165596e-02,7.00000000e-01
1.69421027e-10,7.53836826e-02,7.00000000e-01
1.70308789e-10,5.89952355e-02,7.00000000e-01
1.71196552e-10,4.65122475e-02,7.00000000e-01
1.72084315e-10,3.68698843e-02,7.00000000e-01
1.72972077e-10,2.93182881e-02,7.00000000e-01
1.73859840e-10,2.33651283e-02,7.00000000e-01
1.74747603e-10,1.86473586e-02,7.00000000e-01
1.75635366e-10,1.48971944e-02,7.00000000e-01
1.77410891e-10,9.51281798e-03,7.00000000e-01
1.80961942e-10,3.88402561e-03,7.00000000e-01
1.84512993e-10,1.61370308e-03,7.00000000e-01
1.88064044e-10,6.51705522e-04,7.00000000e-01
1.95166145e-10,1.15098353e-04,7.00000000e-01
2.02268247e-10,1.70239872e-05,7.00000000e-01
2.10000000e-10,6.36395727e-06,7.00000000e-01
2.10062500e-10,-3.94426179e-03,6.95625000e-01
2.10125000e-10,-6.96955856e-03,6.91250000e-01
2.10187500e-10,-9.59487958e-03,6.86875000e-01
2.10312500e-10,-1.30255523e-02,6.78125000e-01
2.10437500e-10,-1.48943674e-02,6.69375000e-01
2.10562500e-10,-1.59410026e-02,6.60625000e-01
2.10812500e-10,-1.69833377e-02,6.43125000e-01
2.11062500e-10,-1.74306231e-02,6.25625000e-01
2.11562500e-10,-1.80591821e-02,5.90625000e-01
2.12062500e-10,-1.87023097e-02,5.55625000e-01
2.13062500e-10,-1.96441236e-02,4.85625000e-01
2.14062500e-10,-1.53847298e-02,4.15625000e-01
2.14179806e-10,-1.39525707e-02,4.07413556e-01
2.14297113e-10,-1.23699445e-02,3.99202111e-01
2.14531725e-10,-8.22316731e-03,3.82779222e-01
2.14766338e-10,-2.53788151e-03,3.66356334e-01
2.15000951e-10,5.14824348e-03,3.49933445e-01
2.15235563e-10,1.56420631e-02,3.33510556e-01
2.15470176e-10,3.04676944e-02,3.17087667e-01
2.15704789e-10,5.28076745e-02,3.00664778e-01
2.15740598e-10,5.72745705e-02,2.98158156e-01
2.15776407e-10,6.19709585e-02,2.95651533e-01
2.15848024e-10,7.24637136e-02,2.90638288e-01
2.15919642e-10,8.45310454e-02,2.85625042e-01
2.15991260e-10,9.82507451e-02,2.80611797e-01
2.16062878e-10,1.13619306e-01,2.75598551e-01
2.16134496e-10,1.30572193e-01,2.70585306e-01
2.16206113e-10,1.49021475e-01,2.65572061e-01
2.16277731e-10,1.68877199e-01,2.60558815e-01
2.16349349e-10,1.90050161e-01,2.55545570e-01
2.16420967e-10,2.12447637e-01,2.50532324e-01
2.16492585e-10,2.35968090e-01,2.45519079e-01
2.16564202e-10,2.60495945e-01,2.40505834e-01
2.16635820e-10,2.85895874e-01,2.35492588e-01
2.16779056e-10,3.38561291e-01,2.25466097e-01
2.17065527e-10,4.43729719e-01,2.05413116e-01
2.17099559e-10,4.55628047e-01,2.03030860e-01
2.17167624e-10,4.78605339e-01,1.98266347e-01
2.17235688e-10,5.00183313e-01,1.93501835e-01
2.17303753e-10,5.20184114e-01,1.88737322e-01
2.17371817e-10,5.38513214e-01,1.83972810e-01
2.17439881e-10,5.55152921e-01,1.79208298e-01
2.17507946e-10,5.70137120e-01,1.74443785e-01
2.17576010e-10,5.83537285e-01,1.69679273e-01
2.17644075e-10,5.95445695e-01,1.64914760e-01
2.17712139e-10,6.05967278e-01,1.60150248e-01
2.17780204e-10,6.15214008e-01,1.55385736e-01
2.17848268e-10,6.23300896e-01,1.50621223e-01
2.17916333e-10,6.30342705e-01,1.45856711e-01
2.17984397e-10,6.36451138e-01,1.41092199e-01
2.18120526e-10,6.46321030e-01,1.31563174e-01
2.18256655e-10,6.53623861e-01,1.22034149e-01
2.18392784e-10,6.58993960e-01,1.12505124e-01
2.18528913e-10,6.62935039e-01,1.02976099e-01
2.18665042e-10,6.65835346e-01,9.34470747e-02
2.18937300e-10,6.69663153e-01,7.43890252e-02
2.19481815e-10,6.73395937e-01,3.62729261e-02
2.20000000e-10,6.75010033e-01,5.55111512e-16
2.20044930e-10,6.78360801e-01,0.00000000e+00
2.20079554e-10,6.80668662e-01,0.00000000e+00
2.20114178e-10,6.82845997e-01,0.00000000e+00
2.20183425e-10,6.86506738e-01,0.00000000e+00
2.20252673e-10,6.89388816e-01,0.00000000e+00
2.20391168e-10,6.93486685e-01,0.00000000e+00
2.20668158e-10,6.97704985e-01,0.00000000e+00
2.20945148e-10,6.99192041e-01,0.00000000e+00
2.21222138e-10,6.99715274e-01,0.00000000e+00
2.21776118e-10,6.99992995e-01,0.00000000e+00
2.22330098e-10,6.99998695e-01,0.00000000e+00
2.23438057e-10,6.99998802e-01,0.00000000e+00
2.24546017e-10,6.99998721e-01,0.00000000e+00
2.26761937e-10,6.99998694e-01,0.00000000e+00
2.31193777e-10,6.99998642e-01,0.00000000e+00
2.40057456e-10,6.99998634e-01,0.00000000e+00
2.57784814e-10,6.99998624e-01,0.00000000e+00
2.87784814e-10,6.99998632e-01,0.00000000e+00
3.17784814e-10,6.99998624e-01,0.00000000e+00
3.47784814e-10,6.99998632e-01,0.00000000e+00
3.77784814e-10,6.99998624e-01,0.00000000e+00
4.00000000e-10,6.99998631e-01,0.00000000e+00
4.00062500e-10,7.04245623e-01,4.37500000e-03
4.00125000e-10,7.07739369e-01,8.75000000e-03
4.00187500e-10,7.10894376e-01,1.31250000e-02
4.00312500e-10,7.15559578e-01,2.18750000e-02
4.00437500e-10,7.18637225e-01,3.06250000e-02
4.00562500e-10,7.20709154e-01,3.93750000e-02
4.00812500e-10,7.23235816e-01,5.68750000e-02
4.01062500e-10,7.24605607e-01,7.43750000e-02
4.01562500e-10,7.26365322e-01,1.09375000e-01
4.02062500e-10,7.27806312e-01,1.44375000e-01
4.03062500e-10,7.29753145e-01,2.14375000e-01
4.03562500e-10,7.27494828e-01,2.49375000e-01
4.03798619e-10,7.25120076e-01,2.65903307e-01
4.04034737e-10,7.21750650e-01,2.82431614e-01
4.04117670e-10,7.19911026e-01,2.88236888e-01
4.04200602e-10,7.17919436e-01,2.94042163e-01
4.04366467e-10,7.12951948e-01,3.05652713e-01
4.04532332e-10,7.06543067e-01,3.17263263e-01
4.04698197e-10,6.98478782e-01,3.28873813e-01
4.04864062e-10,6.88459238e-01,3.40484363e-01
4.05029927e-10,6.76023578e-01,3.52094913e-01
4.05195792e-10,6.60406152e-01,3.63705463e-01
4.05361657e-10,6.40258302e-01,3.75316013e-01
4.05527522e-10,6.13362908e-01,3.86926563e-01
4.05676801e-10,5.81281861e-01,3.97376058e-01
4.05810332e-10,5.45641657e-01,4.06723236e-01
4.05930510e-10,5.08316906e-01,4.15135695e-01
4.06050688e-10,4.66479238e-01,4.23548155e-01
4.06170866e-10,4.20551879e-01,4.31960615e-01
4.06291044e-10,3.71031365e-01,4.40373075e-01
4.06411222e-10,3.18669970e-01,4.48785534e-01
4.06531400e-10,2.64832523e-01,4.57197994e-01
4.06647103e-10,2.13908153e-01,4.65297237e-01
4.06762807e-10,1.67516327e-01,4.73396479e-01
4.06866940e-10,1.31912857e-01,4.80685798e-01
4.06960660e-10,1.05559917e-01,4.87246184e-01
4.07054380e-10,8.44544719e-02,4.93806571e-01
4.07148099e-10,6.80060163e-02,5.00366958e-01
4.07241819e-10,5.54548961e-02,5.06927344e-01
4.07335539e-10,4.60281728e-02,5.13487731e-01
4.07429259e-10,3.90250080e-02,5.20048118e-01
4.07522979e-10,3.38560269e-02,5.26608504e-01
4.07616698e-10,3.00508557e-02,5.33168891e-01
4.07710418e-10,2.72474211e-02,5.39729277e-01
4.07897858e-10,2.35688855e-02,5.52850051e-01
4.08272737e-10,2.01678004e-02,5.79091597e-01
4.09022496e-10,1.81592947e-02,6.31574690e-01
4.09697278e-10,1.74304826e-02,6.78809474e-01
4.10000000e-10,1.71209016e-02,7.00000000e-01
4.10035244e-10,1.45965785e-02,7.00000000e-01
4.10064115e-10,1.27849798e-02,7.00000000e-01
4.10092985e-10,1.10935771e-02,7.00000000e-01
4.10150726e-10,8.33968056e-03,7.00000000e-01
4.10208467e-10,6.26874249e-03,7.00000000e-01
4.10323949e-10,3.49901133e-03,7.00000000e-01
4.10554913e-10,9.66758234e-04,7.00000000e-01
4.11016841e-10,-5.98935239e-05,7.00000000e-01
4.11478768e-10,4.97166562e-06,7.00000000e-01
4.11940696e-10,8.64890684e-07,7.00000000e-01
4.12402623e-10,1.12486651e-06,7.00000000e-01
4.13326478e-10,1.10337739e-06,7.00000000e-01
4.15174189e-10,1.11323058e-06,7.00000000e-01
4.18869609e-10,1.10630983e-06,7.00000000e-01
4.26260451e-10,1.11214693e-06,7.00000000e-01
4.41042133e-10,1.10677908e-06,7.00000000e-01
4.70605498e-10,1.11192823e-06,7.00000000e-01
5.00605498e-10,1.10691795e-06,7.00000000e-01
5.10000000e-10,1.11165502e-06,7.00000000e-01
5.10062500e-10,-3.94888009e-03,6.95625000e-01
5.10125000e-10,-6.97368578e-03,6.91250000e-01
5.10187500e-10,-9.59857767e-03,6.86875000e-01
5.10312500e-10,-1.30286747e-02,6.78125000e-01
5.10437500e-10,-1.48971575e-02,6.69375000e-01
5.10562500e-10,-1.59435898e-02,6.60625000e-01
5.10812500e-10,-1.69856889e-02,6.43125000e-01
5.11062500e-10,-1.74328404e-02,6.25625000e-01
5.11562500e-10,-1.80612045e-02,5.90625000e-01
5.12062500e-10,-1.87041774e-02,5.55625000e-01
5.13062500e-10,-1.96457580e-02,4.85625000e-01
5.14062500e-10,-1.53862525e-02,4.15625000e-01
5.14179807e-10,-1.39540826e-02,4.07413506e-01
5.14297114e-10,-1.23714460e-02,3.99202013e-01
5.14531728e-10,-8.22464971e-03,3.82779025e-01
5.14766342e-10,-2.53934833e-03,3.66356038e-01
5.15000956e-10,5.14678651e-03,3.49933051e-01
5.15235571e-10,1.56406068e-02,3.33510064e-01
5.15470185e-10,3.04662236e-02,3.17087076e-01
5.15704799e-10,5.28061722e-02,3.00664089e-01
5.15740608e-10,5.72730459e-02,2.98157461e-01
5.15776417e-10,6.19694114e-02,2.95650834e-01
5.15848035e-10,7.24621224e-02,2.90637578e-01
5.15919653e-10,8.45294148e-02,2.85624323e-01
5.15991270e-10,9.82490843e-02,2.80611068e-01
5.16062888e-10,1.13617627e-01,2.75597812e-01
5.16134506e-10,1.30570508e-01,2.70584557e-01
5.16206124e-10,1.49019796e-01,2.65571301e-01
5.16277742e-10,1.68875534e-01,2.60558046e-01
5.16349360e-10,1.90048519e-01,2.55544790e-01
5.16420978e-10,2.12446024e-01,2.50531535e-01
5.16492596e-10,2.35966513e-01,2.45518280e-01
5.16564214e-10,2.60494409e-01,2.40505024e-01
5.16635832e-10,2.85894383e-01,2.35491769e-01
5.16779068e-10,3.38559906e-01,2.25465258e-01
5.17065539e-10,4.43728579e-01,2.05412236e-01
5.17099572e-10,4.55626933e-01,2.03029976e-01
5.17167636e-10,4.78604277e-01,1.98265457e-01
5.17235701e-10,5.00182303e-01,1.93500937e-01
5.17303765e-10,5.20183154e-01,1.88736418e-01
5.17371830e-10,5.38512302e-01,1.83971898e-01
5.17439895e-10,5.55152054e-01,1.79207379e-01
5.17507959e-10,5.70136294e-01,1.74442859e-01
5.17576024e-10,5.83536496e-01,1.69678339e-01
5.17644088e-10,5.95444939e-01,1.64913820e-01
5.17712153e-10,6.05966552e-01,1.60149300e-01
5.17780217e-10,6.15213307e-01,1.55384781e-01
5.17848282e-10,6.23300219e-01,1.50620261e-01
5.17916347e-10,6.30342049e-01,1.45855742e-01
5.17984411e-10,6.36450500e-01,1.41091222e-01
5.18120540e-10,6.46320426e-01,1.31562183e-01
5.18256669e-10,6.53623285e-01,1.22033144e-01
5.18392799e-10,6.58993410e-01,1.12504105e-01
5.18528928e-10,6.62934513e-01,1.02975065e-01
5.18665057e-10,6.65834842e-01,9.34460263e-02
5.18937315e-10,6.69662694e-01,7.43879480e-02
5.19481832e-10,6.73395560e-01,3.62717915e-02
5.20000000e-10,6.75009677e-01,4.21884749e-15
5.20044930e-10,6.78360451e-01,0.00000000e+00
5.20079554e-10,6.80668316e-01,0.00000000e+00
5.20114178e-10,6.82845655e-01,0.00000000e+00
5.20183425e-10,6.86506404e-01,0.00000000e+00
