TIME,V(OUT),V(IN1),V(IN2),V(IN3)
0.00000000e+00,6.99999347e-01,0.00000000e+00,0.00000000e+00,0.00000000e+00
1.00000000e-13,7.06044842e-01,0.00000000e+00,7.00000000e-03,7.00000000e-03
2.00000000e-13,7.11676104e-01,0.00000000e+00,1.40000000e-02,1.40000000e-02
3.00000000e-13,7.16937449e-01,0.00000000e+00,2.10000000e-02,2.10000000e-02
4.00000000e-13,7.21861490e-01,0.00000000e+00,2.80000000e-02,2.80000000e-02
5.00000000e-13,7.26785530e-01,0.00000000e+00,3.50000000e-02,3.50000000e-02
6.00000000e-13,7.31070042e-01,0.00000000e+00,4.20000000e-02,4.20000000e-02
7.00000000e-13,7.35275510e-01,0.00000000e+00,4.90000000e-02,4.90000000e-02
8.00000000e-13,7.39279538e-01,0.00000000e+00,5.60000000e-02,5.60000000e-02
9.00000000e-13,7.42874582e-01,0.00000000e+00,6.30000000e-02,6.30000000e-02
1.00000000e-12,7.46469625e-01,0.00000000e+00,7.00000000e-02,7.00000000e-02
1.10000000e-12,7.49664872e-01,0.00000000e+00,7.70000000e-02,7.70000000e-02
1.20000000e-12,7.52740698e-01,0.00000000e+00,8.40000000e-02,8.40000000e-02
1.30000000e-12,7.55688041e-01,0.00000000e+00,9.10000000e-02,9.10000000e-02
1.40000000e-12,7.58152045e-01,0.00000000e+00,9.80000000e-02,9.80000000e-02
1.50000000e-12,7.60616050e-01,0.00000000e+00,1.05000000e-01,1.05000000e-01
1.60000000e-12,7.63080054e-01,0.00000000e+00,1.12000000e-01,1.12000000e-01
1.70000000e-12,7.65544058e-01,0.00000000e+00,1.19000000e-01,1.19000000e-01
1.80000000e-12,7.67950637e-01,0.00000000e+00,1.26000000e-01,1.26000000e-01
1.90000000e-12,7.69776583e-01,0.00000000e+00,1.33000000e-01,1.33000000e-01
2.00000000e-12,7.71602530e-01,0.00000000e+00,1.40000000e-01,1.40000000e-01
2.10000000e-12,7.73428476e-01,0.00000000e+00,1.47000000e-01,1.47000000e-01
2.20000000e-12,7.75254422e-01,0.00000000e+00,1.54000000e-01,1.54000000e-01
2.30300000e-12,7.77135147e-01,0.00000000e+00,1.61210000e-01,1.61210000e-01
2.40000000e-12,7.78473212e-01,0.00000000e+00,1.68000000e-01,1.68000000e-01
2.50000000e-12,7.79852661e-01,0.00000000e+00,1.75000000e-01,1.75000000e-01
2.60000000e-12,7.81232109e-01,0.00000000e+00,1.82000000e-01,1.82000000e-01
2.70000000e-12,7.82611558e-01,0.00000000e+00,1.89000000e-01,1.89000000e-01
2.80000000e-12,7.83991006e-01,0.00000000e+00,1.96000000e-01,1.96000000e-01
2.90000000e-12,7.85112690e-01,0.00000000e+00,2.03000000e-01,2.03000000e-01
3.00000000e-12,7.86188886e-01,0.00000000e+00,2.10000000e-01,2.10000000e-01
3.10000000e-12,7.87265083e-01,0.00000000e+00,2.17000000e-01,2.17000000e-01
3.20000000e-12,7.88341279e-01,0.00000000e+00,2.24000000e-01,2.24000000e-01
3.30000000e-12,7.89417475e-01,0.00000000e+00,2.31000000e-01,2.31000000e-01
3.40000000e-12,7.90352697e-01,0.00000000e+00,2.38000000e-01,2.38000000e-01
3.50000000e-12,7.91235777e-01,0.00000000e+00,2.45000000e-01,2.45000000e-01
3.60000000e-12,7.92118858e-01,0.00000000e+00,2.52000000e-01,2.52000000e-01
3.70000000e-12,7.93001938e-01,0.00000000e+00,2.59000000e-01,2.59000000e-01
3.80000000e-12,7.93885019e-01,0.00000000e+00,2.66000000e-01,2.66000000e-01
3.90000000e-12,7.94705279e-01,0.00000000e+00,2.73000000e-01,2.73000000e-01
4.00000000e-12,7.95485377e-01,0.00000000e+00,2.80000000e-01,2.80000000e-01
4.10000000e-12,7.96265474e-01,0.00000000e+00,2.87000000e-01,2.87000000e-01
4.20000000e-12,7.97045571e-01,0.00000000e+00,2.94000000e-01,2.94000000e-01
4.30000000e-12,7.97825668e-01,0.00000000e+00,3.01000000e-01,3.01000000e-01
4.40000000e-12,7.98592407e-01,0.00000000e+00,3.08000000e-01,3.08000000e-01
4.50000000e-12,7.99340238e-01,0.00000000e+00,3.15000000e-01,3.15000000e-01
4.60000000e-12,8.00088271e-01,0.00000000e+00,3.22000000e-01,3.22000000e-01
4.70000000e-12,8.00837938e-01,0.00000000e+00,3.29000000e-01,3.29000000e-01
4.80000000e-12,8.01599928e-01,0.00000000e+00,3.36000000e-01,3.36000000e-01
4.90000000e-12,8.02365690e-01,0.00000000e+00,3.43000000e-01,3.43000000e-01
5.00000000e-12,8.03153340e-01,0.00000000e+00,3.50000000e-01,3.50000000e-01
5.10000000e-12,8.03951570e-01,0.00000000e+00,3.57000000e-01,3.57000000e-01
5.20000000e-12,8.04774865e-01,0.00000000e+00,3.64000000e-01,3.64000000e-01
5.30000000e-12,8.05622178e-01,0.00000000e+00,3.71000000e-01,3.71000000e-01
5.40000000e-12,8.06493650e-01,0.00000000e+00,3.78000000e-01,3.78000000e-01
5.50000000e-12,8.07408446e-01,0.00000000e+00,3.85000000e-01,3.85000000e-01
5.60000000e-12,8.08341787e-01,0.00000000e+00,3.92000000e-01,3.92000000e-01
5.70000000e-12,8.09344131e-01,0.00000000e+00,3.99000000e-01,3.99000000e-01
5.80000000e-12,8.10363024e-01,0.00000000e+00,4.06000000e-01,4.06000000e-01
5.90000000e-12,8.11460150e-01,0.00000000e+00,4.13000000e-01,4.13000000e-01
6.00000000e-12,8.12563493e-01,0.00000000e+00,4.20000000e-01,4.20000000e-01
6.10000000e-12,8.13680980e-01,0.00000000e+00,4.27000000e-01,4.27000000e-01
6.20000000e-12,8.14585382e-01,0.00000000e+00,4.34000000e-01,4.34000000e-01
6.30000000e-12,8.15282651e-01,0.00000000e+00,4.41000000e-01,4.41000000e-01
6.40000000e-12,8.15182522e-01,0.00000000e+00,4.48000000e-01,4.48000000e-01
6.50000000e-12,8.14754778e-01,0.00000000e+00,4.55000000e-01,4.55000000e-01
6.60000000e-12,8.13013430e-01,0.00000000e+00,4.62000000e-01,4.62000000e-01
6.70000000e-12,8.10986779e-01,0.00000000e+00,4.69000000e-01,4.69000000e-01
6.80000000e-12,8.07724432e-01,0.00000000e+00,4.76000000e-01,4.76000000e-01
6.90000000e-12,8.04048101e-01,0.00000000e+00,4.83000000e-01,4.83000000e-01
7.00000000e-12,7.99466976e-01,0.00000000e+00,4.90000000e-01,4.90000000e-01
7.10000000e-12,7.94145252e-01,0.00000000e+00,4.97000000e-01,4.97000000e-01
7.20000000e-12,7.88127808e-01,0.00000000e+00,5.04000000e-01,5.04000000e-01
7.30000000e-12,7.80807253e-01,0.00000000e+00,5.11000000e-01,5.11000000e-01
7.40000000e-12,7.72973197e-01,0.00000000e+00,5.18000000e-01,5.18000000e-01
7.50000000e-12,7.62980093e-01,0.00000000e+00,5.25000000e-01,5.25000000e-01
7.60000000e-12,7.52492322e-01,0.00000000e+00,5.32000000e-01,5.32000000e-01
7.70000000e-12,7.39787465e-01,0.00000000e+00,5.39000000e-01,5.39000000e-01
7.80000000e-12,7.26386152e-01,0.00000000e+00,5.46000000e-01,5.46000000e-01
7.90000000e-12,7.11521445e-01,0.00000000e+00,5.53000000e-01,5.53000000e-01
8.00000000e-12,6.95722156e-01,0.00000000e+00,5.60000000e-01,5.60000000e-01
8.10000000e-12,6.79074453e-01,0.00000000e+00,5.67000000e-01,5.67000000e-01
8.20000000e-12,6.61262588e-01,0.00000000e+00,5.74000000e-01,5.74000000e-01
8.30000000e-12,6.43011072e-01,0.00000000e+00,5.81000000e-01,5.81000000e-01
8.40000000e-12,6.23345449e-01,0.00000000e+00,5.88000000e-01,5.88000000e-01
8.50000000e-12,6.03380351e-01,0.00000000e+00,5.95000000e-01,5.95000000e-01
8.60000000e-12,5.82141934e-01,0.00000000e+00,6.02000000e-01,6.02000000e-01
8.70000000e-12,5.60447470e-01,0.00000000e+00,6.09000000e-01,6.09000000e-01
8.80000000e-12,5.37831252e-01,0.00000000e+00,6.16000000e-01,6.16000000e-01
8.90000000e-12,5.14556849e-01,0.00000000e+00,6.23000000e-01,6.23000000e-01
9.00000000e-12,4.90705076e-01,0.00000000e+00,6.30000000e-01,6.30000000e-01
9.10000000e-12,4.66140274e-01,0.00000000e+00,6.37000000e-01,6.37000000e-01
9.20000000e-12,4.41317618e-01,0.00000000e+00,6.44000000e-01,6.44000000e-01
9.30000000e-12,4.16442500e-01,0.00000000e+00,6.51000000e-01,6.51000000e-01
9.40000000e-12,3.91563802e-01,0.00000000e+00,6.58000000e-01,6.58000000e-01
9.50000000e-12,3.66685103e-01,0.00000000e+00,6.65000000e-01,6.65000000e-01
9.60000000e-12,3.42155627e-01,0.00000000e+00,6.72000000e-01,6.72000000e-01
9.70000000e-12,3.19092352e-01,0.00000000e+00,6.79000000e-01,6.79000000e-01
9.80000000e-12,2.97941642e-01,0.00000000e+00,6.86000000e-01,6.86000000e-01
9.90000000e-12,2.78108446e-01,0.00000000e+00,6.93000000e-01,6.93000000e-01
1.00000000e-11,2.58646327e-01,0.00000000e+00,7.00000000e-01,7.00000000e-01
1.01000000e-11,2.36286470e-01,0.00000000e+00,7.00000000e-01,7.00000000e-01
1.02000000e-11,2.15319555e-01,0.00000000e+00,7.00000000e-01,7.00000000e-01
1.03000000e-11,1.95720540e-01,0.00000000e+00,7.00000000e-01,7.00000000e-01
1.04000000e-11,1.77639456e-01,0.00000000e+00,7.00000000e-01,7.00000000e-01
1.05000000e-11,1.60676285e-01,0.00000000e+00,7.00000000e-01,7.00000000e-01
1.06000000e-11,1.45856615e-01,0.00000000e+00,7.00000000e-01,7.00000000e-01
1.07000000e-11,1.31710399e-01,0.00000000e+00,7.00000000e-01,7.00000000e-01
1.08000000e-11,1.19365894e-01,0.00000000e+00,7.00000000e-01,7.00000000e-01
1.09000000e-11,1.07871601e-01,0.00000000e+00,7.00000000e-01,7.00000000e-01
1.10000000e-11,9.73855933e-02,0.00000000e+00,7.00000000e-01,7.00000000e-01
1.11000000e-11,8.81021897e-02,0.00000000e+00,7.00000000e-01,7.00000000e-01
1.12000000e-11,7.92789654e-02,0.00000000e+00,7.00000000e-01,7.00000000e-01
1.13000000e-11,7.17688659e-02,0.00000000e+00,7.00000000e-01,7.00000000e-01
1.14000000e-11,6.46578815e-02,0.00000000e+00,7.00000000e-01,7.00000000e-01
1.15000000e-11,5.83248838e-02,0.00000000e+00,7.00000000e-01,7.00000000e-01
1.16000000e-11,5.26267935e-02,0.00000000e+00,7.00000000e-01,7.00000000e-01
1.17000000e-11,4.72969200e-02,0.00000000e+00,7.00000000e-01,7.00000000e-01
1.18000000e-11,4.27561595e-02,0.00000000e+00,7.00000000e-01,7.00000000e-01
1.19000000e-11,3.84989486e-02,0.00000000e+00,7.00000000e-01,7.00000000e-01
1.20000000e-11,3.50230591e-02,0.00000000e+00,7.00000000e-01,7.00000000e-01
1.21000000e-11,3.15471696e-02,0.00000000e+00,7.00000000e-01,7.00000000e-01
1.22000000e-11,2.80712801e-02,0.00000000e+00,7.00000000e-01,7.00000000e-01
1.23000000e-11,2.54383146e-02,0.00000000e+00,7.00000000e-01,7.00000000e-01
1.24000000e-11,2.30051486e-02,0.00000000e+00,7.00000000e-01,7.00000000e-01
1.25000000e-11,2.05719826e-02,0.00000000e+00,7.00000000e-01,7.00000000e-01
1.26000000e-11,1.84294943e-02,0.00000000e+00,7.00000000e-01,7.00000000e-01
1.27000000e-11,1.67301491e-02,0.00000000e+00,7.00000000e-01,7.00000000e-01
1.28000000e-11,1.50308038e-02,0.00000000e+00,7.00000000e-01,7.00000000e-01
1.29016156e-11,1.33040039e-02,0.00000000e+00,7.00000000e-01,7.00000000e-01
1.30000000e-11,1.21382298e-02,0.00000000e+00,7.00000000e-01,7.00000000e-01
1.31000000e-11,1.09533120e-02,0.00000000e+00,7.00000000e-01,7.00000000e-01
1.32000000e-11,9.76839432e-03,0.00000000e+00,7.00000000e-01,7.00000000e-01
1.33000000e-11,8.85124249e-03,0.00000000e+00,7.00000000e-01,7.00000000e-01
1.34000000e-11,8.13479713e-03,0.00000000e+00,7.00000000e-01,7.00000000e-01
1.35000000e-11,7.41835177e-03,0.00000000e+00,7.00000000e-01,7.00000000e-01
1.36000000e-11,6.70190641e-03,0.00000000e+00,7.00000000e-01,7.00000000e-01
1.37000000e-11,5.98546104e-03,0.00000000e+00,7.00000000e-01,7.00000000e-01
1.38000000e-11,5.26901568e-03,0.00000000e+00,7.00000000e-01,7.00000000e-01
1.39000000e-11,4.55257032e-03,0.00000000e+00,7.00000000e-01,7.00000000e-01
1.40000000e-11,4.17140108e-03,0.00000000e+00,7.00000000e-01,7.00000000e-01
1.41000000e-11,3.90376819e-03,0.00000000e+00,7.00000000e-01,7.00000000e-01
1.42000000e-11,3.63613529e-03,0.00000000e+00,7.00000000e-01,7.00000000e-01
1.43000000e-11,3.36850239e-03,0.00000000e+00,7.00000000e-01,7.00000000e-01
1.44000000e-11,3.10086950e-03,0.00000000e+00,7.00000000e-01,7.00000000e-01
1.45000000e-11,2.83323660e-03,0.00000000e+00,7.00000000e-01,7.00000000e-01
1.46000000e-11,2.56560371e-03,0.00000000e+00,7.00000000e-01,7.00000000e-01
1.47000000e-11,2.29797081e-03,0.00000000e+00,7.00000000e-01,7.00000000e-01
1.48000000e-11,2.03033792e-03,0.00000000e+00,7.00000000e-01,7.00000000e-01
1.49000000e-11,1.76270502e-03,0.00000000e+00,7.00000000e-01,7.00000000e-01
1.50000000e-11,1.49507212e-03,0.00000000e+00,7.00000000e-01,7.00000000e-01
1.51000000e-11,1.22743923e-03,0.00000000e+00,7.00000000e-01,7.00000000e-01
1.52000000e-11,9.59806333e-04,0.00000000e+00,7.00000000e-01,7.00000000e-01
1.53000000e-11,7.15350122e-04,0.00000000e+00,7.00000000e-01,7.00000000e-01
1.54000000e-11,6.84350706e-04,0.00000000e+00,7.00000000e-01,7.00000000e-01
1.55000000e-11,6.53351289e-04,0.00000000e+00,7.00000000e-01,7.00000000e-01
1.56000000e-11,6.22351872e-04,0.00000000e+00,7.00000000e-01,7.00000000e-01
1.57000000e-11,5.91352455e-04,0.00000000e+00,7.00000000e-01,7.00000000e-01
1.58000000e-11,5.60353038e-04,0.00000000e+00,7.00000000e-01,7.00000000e-01
1.59000000e-11,5.29353621e-04,0.00000000e+00,7.00000000e-01,7.00000000e-01
1.60000000e-11,4.98354205e-04,0.00000000e+00,7.00000000e-01,7.00000000e-01
1.61000000e-11,4.67354788e-04,0.00000000e+00,7.00000000e-01,7.00000000e-01
1.62000000e-11,4.36355371e-04,0.00000000e+00,7.00000000e-01,7.00000000e-01
1.63000000e-11,4.05355954e-04,0.00000000e+00,7.00000000e-01,7.00000000e-01
1.64000000e-11,3.74356537e-04,0.00000000e+00,7.00000000e-01,7.00000000e-01
1.65000000e-11,3.43357120e-04,0.00000000e+00,7.00000000e-01,7.00000000e-01
1.66000000e-11,3.12357704e-04,0.00000000e+00,7.00000000e-01,7.00000000e-01
1.67000000e-11,2.81358287e-04,0.00000000e+00,7.00000000e-01,7.00000000e-01
1.68000000e-11,2.50358870e-04,0.00000000e+00,7.00000000e-01,7.00000000e-01
1.69000000e-11,2.19359453e-04,0.00000000e+00,7.00000000e-01,7.00000000e-01
1.70000000e-11,1.88360036e-04,0.00000000e+00,7.00000000e-01,7.00000000e-01
1.71000000e-11,1.57360619e-04,0.00000000e+00,7.00000000e-01,7.00000000e-01
1.72000000e-11,1.26361203e-04,0.00000000e+00,7.00000000e-01,7.00000000e-01
1.73000000e-11,9.53617857e-05,0.00000000e+00,7.00000000e-01,7.00000000e-01
1.74000000e-11,6.43623688e-05,0.00000000e+00,7.00000000e-01,7.00000000e-01
1.75000000e-11,3.33629520e-05,0.00000000e+00,7.00000000e-01,7.00000000e-01
1.76000000e-11,2.36353515e-06,0.00000000e+00,7.00000000e-01,7.00000000e-01
1.77000000e-11,-2.86358817e-05,0.00000000e+00,7.00000000e-01,7.00000000e-01
1.78000000e-11,-5.96352985e-05,0.00000000e+00,7.00000000e-01,7.00000000e-01
1.79000000e-11,-9.06347154e-05,0.00000000e+00,7.00000000e-01,7.00000000e-01
1.80000000e-11,-1.21634132e-04,0.00000000e+00,7.00000000e-01,7.00000000e-01
1.81000000e-11,-1.23069621e-04,0.00000000e+00,7.00000000e-01,7.00000000e-01
1.82000000e-11,-1.17103560e-04,0.00000000e+00,7.00000000e-01,7.00000000e-01
1.83000000e-11,-1.11137498e-04,0.00000000e+00,7.00000000e-01,7.00000000e-01
1.84000000e-11,-1.05171437e-04,0.00000000e+00,7.00000000e-01,7.00000000e-01
1.85000000e-11,-9.92053754e-05,0.00000000e+00,7.00000000e-01,7.00000000e-01
1.86000000e-11,-9.32393140e-05,0.00000000e+00,7.00000000e-01,7.00000000e-01
1.87000000e-11,-8.72732526e-05,0.00000000e+00,7.00000000e-01,7.00000000e-01
1.88000000e-11,-8.13071913e-05,0.00000000e+00,7.00000000e-01,7.00000000e-01
1.89000000e-11,-7.53411299e-05,0.00000000e+00,7.00000000e-01,7.00000000e-01
1.90000000e-11,-6.93750685e-05,0.00000000e+00,7.00000000e-01,7.00000000e-01
1.91000000e-11,-6.34090072e-05,0.00000000e+00,7.00000000e-01,7.00000000e-01
1.92000000e-11,-5.74429458e-05,0.00000000e+00,7.00000000e-01,7.00000000e-01
1.93000000e-11,-5.14768844e-05,0.00000000e+00,7.00000000e-01,7.00000000e-01
1.94000000e-11,-4.55108230e-05,0.00000000e+00,7.00000000e-01,7.00000000e-01
1.95000000e-11,-3.95447617e-05,0.00000000e+00,7.00000000e-01,7.00000000e-01
1.96000000e-11,-3.35787003e-05,0.00000000e+00,7.00000000e-01,7.00000000e-01
1.97000000e-11,-2.76126389e-05,0.00000000e+00,7.00000000e-01,7.00000000e-01
1.98000000e-11,-2.16465776e-05,0.00000000e+00,7.00000000e-01,7.00000000e-01
1.99000000e-11,-1.56805162e-05,0.00000000e+00,7.00000000e-01,7.00000000e-01
2.00000000e-11,-9.71445481e-06,0.00000000e+00,7.00000000e-01,7.00000000e-01
2.01000000e-11,-3.74839344e-06,0.00000000e+00,7.00000000e-01,7.00000000e-01
2.02000000e-11,2.21766794e-06,0.00000000e+00,7.00000000e-01,7.00000000e-01
2.03000000e-11,8.18372931e-06,0.00000000e+00,7.00000000e-01,7.00000000e-01
2.04000000e-11,1.41497907e-05,0.00000000e+00,7.00000000e-01,7.00000000e-01
2.05000000e-11,1.58416259e-05,0.00000000e+00,7.00000000e-01,7.00000000e-01
2.06000000e-11,1.51261718e-05,0.00000000e+00,7.00000000e-01,7.00000000e-01
2.07000000e-11,1.44107178e-05,0.00000000e+00,7.00000000e-01,7.00000000e-01
2.08000000e-11,1.36952637e-05,0.00000000e+00,7.00000000e-01,7.00000000e-01
2.09000000e-11,1.29798097e-05,0.00000000e+00,7.00000000e-01,7.00000000e-01
2.10000000e-11,1.22643556e-05,0.00000000e+00,7.00000000e-01,7.00000000e-01
2.11000000e-11,1.15489015e-05,0.00000000e+00,7.00000000e-01,7.00000000e-01
2.12000000e-11,1.08334475e-05,0.00000000e+00,7.00000000e-01,7.00000000e-01
2.13000000e-11,1.01179934e-05,0.00000000e+00,7.00000000e-01,7.00000000e-01
2.14000000e-11,9.40253934e-06,0.00000000e+00,7.00000000e-01,7.00000000e-01
2.15000000e-11,8.68708527e-06,0.00000000e+00,7.00000000e-01,7.00000000e-01
2.16000000e-11,7.97163121e-06,0.00000000e+00,7.00000000e-01,7.00000000e-01
2.17000000e-11,7.25617715e-06,0.00000000e+00,7.00000000e-01,7.00000000e-01
2.18000000e-11,6.54072308e-06,0.00000000e+00,7.00000000e-01,7.00000000e-01
2.19000000e-11,5.82526902e-06,0.00000000e+00,7.00000000e-01,7.00000000e-01
2.20000000e-11,5.10981496e-06,0.00000000e+00,7.00000000e-01,7.00000000e-01
2.21000000e-11,4.39436089e-06,0.00000000e+00,7.00000000e-01,7.00000000e-01
2.22000000e-11,3.67890683e-06,0.00000000e+00,7.00000000e-01,7.00000000e-01
2.23000000e-11,2.96345277e-06,0.00000000e+00,7.00000000e-01,7.00000000e-01
2.24000000e-11,2.24799870e-06,0.00000000e+00,7.00000000e-01,7.00000000e-01
2.25000000e-11,1.53254464e-06,0.00000000e+00,7.00000000e-01,7.00000000e-01
2.26000000e-11,8.17090577e-07,0.00000000e+00,7.00000000e-01,7.00000000e-01
2.27000000e-11,1.01636514e-07,0.00000000e+00,7.00000000e-01,7.00000000e-01
2.28000000e-11,-6.13817549e-07,0.00000000e+00,7.00000000e-01,7.00000000e-01
2.29000000e-11,-9.59715746e-07,0.00000000e+00,7.00000000e-01,7.00000000e-01
2.30000000e-11,-9.04694952e-07,0.00000000e+00,7.00000000e-01,7.00000000e-01
2.31000000e-11,-8.49674159e-07,0.00000000e+00,7.00000000e-01,7.00000000e-01
2.32000000e-11,-7.94653365e-07,0.00000000e+00,7.00000000e-01,7.00000000e-01
2.33000000e-11,-7.39632571e-07,0.00000000e+00,7.00000000e-01,7.00000000e-01
2.34000000e-11,-6.84611777e-07,0.00000000e+00,7.00000000e-01,7.00000000e-01
2.35000000e-11,-6.29590983e-07,0.00000000e+00,7.00000000e-01,7.00000000e-01
2.36000000e-11,-5.74570189e-07,0.00000000e+00,7.00000000e-01,7.00000000e-01
2.37000000e-11,-5.19549395e-07,0.00000000e+00,7.00000000e-01,7.00000000e-01
2.38000000e-11,-4.64528601e-07,0.00000000e+00,7.00000000e-01,7.00000000e-01
2.39000000e-11,-4.09507807e-07,0.00000000e+00,7.00000000e-01,7.00000000e-01
2.40000000e-11,-3.54487013e-07,0.00000000e+00,7.00000000e-01,7.00000000e-01
2.41000000e-11,-2.99466219e-07,0.00000000e+00,7.00000000e-01,7.00000000e-01
2.42000000e-11,-2.44445425e-07,0.00000000e+00,7.00000000e-01,7.00000000e-01
2.43000000e-11,-1.89424631e-07,0.00000000e+00,7.00000000e-01,7.00000000e-01
2.44000000e-11,-1.34403838e-07,0.00000000e+00,7.00000000e-01,7.00000000e-01
2.45000000e-11,-7.93830436e-08,0.00000000e+00,7.00000000e-01,7.00000000e-01
2.46000000e-11,-2.43622497e-08,0.00000000e+00,7.00000000e-01,7.00000000e-01
2.47000000e-11,3.06585443e-08,0.00000000e+00,7.00000000e-01,7.00000000e-01
2.48000000e-11,8.56793382e-08,0.00000000e+00,7.00000000e-01,7.00000000e-01
2.49000000e-11,1.40700132e-07,0.00000000e+00,7.00000000e-01,7.00000000e-01
2.50000000e-11,1.95720926e-07,0.00000000e+00,7.00000000e-01,7.00000000e-01
2.51000000e-11,2.50741720e-07,0.00000000e+00,7.00000000e-01,7.00000000e-01
2.52000000e-11,3.05762514e-07,0.00000000e+00,7.00000000e-01,7.00000000e-01
2.53000000e-11,3.60783308e-07,0.00000000e+00,7.00000000e-01,7.00000000e-01
2.54000000e-11,4.15804102e-07,0.00000000e+00,7.00000000e-01,7.00000000e-01
2.55000000e-11,4.70824896e-07,0.00000000e+00,7.00000000e-01,7.00000000e-01
2.56000000e-11,5.25845690e-07,0.00000000e+00,7.00000000e-01,7.00000000e-01
2.57000000e-11,5.80866483e-07,0.00000000e+00,7.00000000e-01,7.00000000e-01
2.58000000e-11,6.35887277e-07,0.00000000e+00,7.00000000e-01,7.00000000e-01
2.59000000e-11,6.90908071e-07,0.00000000e+00,7.00000000e-01,7.00000000e-01
2.60000000e-11,7.45928865e-07,0.00000000e+00,7.00000000e-01,7.00000000e-01
2.61000000e-11,8.00949659e-07,0.00000000e+00,7.00000000e-01,7.00000000e-01
2.62000000e-11,8.55970453e-07,0.00000000e+00,7.00000000e-01,7.00000000e-01
2.63000000e-11,9.10991247e-07,0.00000000e+00,7.00000000e-01,7.00000000e-01
2.64000000e-11,9.66012041e-07,0.00000000e+00,7.00000000e-01,7.00000000e-01
