TIME,V(OUT),V(IN1),V(IN2)
0.00000000e+00,6.99999927e-01,0.00000000e+00,0.00000000e+00
1.00000000e-13,7.04010405e-01,7.00000000e-03,0.00000000e+00
2.00000000e-13,7.06685083e-01,1.40000000e-02,0.00000000e+00
3.00000000e-13,7.08556493e-01,2.10000000e-02,0.00000000e+00
4.00000000e-13,7.09781545e-01,2.80000000e-02,0.00000000e+00
5.00000000e-13,7.11006597e-01,3.50000000e-02,0.00000000e+00
6.00000000e-13,7.11456191e-01,4.20000000e-02,0.00000000e+00
7.00000000e-13,7.11809941e-01,4.90000000e-02,0.00000000e+00
8.00000000e-13,7.12163692e-01,5.60000000e-02,0.00000000e+00
9.00000000e-13,7.12517442e-01,6.30000000e-02,0.00000000e+00
1.00000000e-12,7.12871193e-01,7.00000000e-02,0.00000000e+00
1.10000000e-12,7.13003910e-01,7.70000000e-02,0.00000000e+00
1.20000000e-12,7.13070605e-01,8.40000000e-02,0.00000000e+00
1.30000000e-12,7.13137299e-01,9.10000000e-02,0.00000000e+00
1.40000000e-12,7.13203993e-01,9.80000000e-02,0.00000000e+00
1.50000000e-12,7.13270688e-01,1.05000000e-01,0.00000000e+00
1.60000000e-12,7.13340331e-01,1.12000000e-01,0.00000000e+00
1.70000000e-12,7.13411562e-01,1.19000000e-01,0.00000000e+00
1.80000000e-12,7.13482792e-01,1.26000000e-01,0.00000000e+00
1.90000000e-12,7.13554023e-01,1.33000000e-01,0.00000000e+00
2.00000000e-12,7.13625254e-01,1.40000000e-01,0.00000000e+00
2.10000000e-12,7.13700645e-01,1.47000000e-01,0.00000000e+00
2.20000000e-12,7.13779724e-01,1.54000000e-01,0.00000000e+00
2.30000000e-12,7.13858804e-01,1.61000000e-01,0.00000000e+00
2.40000000e-12,7.13937884e-01,1.68000000e-01,0.00000000e+00
2.50000000e-12,7.14016963e-01,1.75000000e-01,0.00000000e+00
2.60000000e-12,7.14101765e-01,1.82000000e-01,0.00000000e+00
2.70000000e-12,7.14194800e-01,1.89000000e-01,0.00000000e+00
2.80000000e-12,7.14287836e-01,1.96000000e-01,0.00000000e+00
2.90000000e-12,7.14380871e-01,2.03000000e-01,0.00000000e+00
3.00000000e-12,7.14473906e-01,2.10000000e-01,0.00000000e+00
3.10000000e-12,7.14566942e-01,2.17000000e-01,0.00000000e+00
3.20000000e-12,7.14659977e-01,2.24000000e-01,0.00000000e+00
3.30000000e-12,7.14753013e-01,2.31000000e-01,0.00000000e+00
3.40000000e-12,7.14846048e-01,2.38000000e-01,0.00000000e+00
3.50000000e-12,7.14939083e-01,2.45000000e-01,0.00000000e+00
3.60000000e-12,7.15033874e-01,2.52000000e-01,0.00000000e+00
3.70000000e-12,7.15137231e-01,2.59000000e-01,0.00000000e+00
3.80000000e-12,7.15240588e-01,2.66000000e-01,0.00000000e+00
3.90000000e-12,7.15343945e-01,2.73000000e-01,0.00000000e+00
4.00000000e-12,7.15447302e-01,2.80000000e-01,0.00000000e+00
4.10000000e-12,7.15550659e-01,2.87000000e-01,0.00000000e+00
4.20000000e-12,7.15654016e-01,2.94000000e-01,0.00000000e+00
4.30000000e-12,7.15757373e-01,3.01000000e-01,0.00000000e+00
4.40000000e-12,7.15860730e-01,3.08000000e-01,0.00000000e+00
4.50000000e-12,7.15964087e-01,3.15000000e-01,0.00000000e+00
4.60000000e-12,7.16067444e-01,3.22000000e-01,0.00000000e+00
4.70000000e-12,7.16170801e-01,3.29000000e-01,0.00000000e+00
4.80000000e-12,7.16274158e-01,3.36000000e-01,0.00000000e+00
4.90000000e-12,7.16377515e-01,3.43000000e-01,0.00000000e+00
5.00000000e-12,7.16480872e-01,3.50000000e-01,0.00000000e+00
5.10000000e-12,7.16584229e-01,3.57000000e-01,0.00000000e+00
5.20000000e-12,7.16687586e-01,3.64000000e-01,0.00000000e+00
5.30000000e-12,7.16790943e-01,3.71000000e-01,0.00000000e+00
5.40000000e-12,7.16894300e-01,3.78000000e-01,0.00000000e+00
5.50000000e-12,7.16997657e-01,3.85000000e-01,0.00000000e+00
5.60000000e-12,7.17101014e-01,3.92000000e-01,0.00000000e+00
5.70000000e-12,7.17001980e-01,3.99000000e-01,0.00000000e+00
5.80000000e-12,7.16812015e-01,4.06000000e-01,0.00000000e+00
5.90000000e-12,7.16622050e-01,4.13000000e-01,0.00000000e+00
6.00000000e-12,7.16432086e-01,4.20000000e-01,0.00000000e+00
6.10000000e-12,7.16242121e-01,4.27000000e-01,0.00000000e+00
6.20000000e-12,7.16052157e-01,4.34000000e-01,0.00000000e+00
6.30000000e-12,7.15862192e-01,4.41000000e-01,0.00000000e+00
6.40000000e-12,7.15672228e-01,4.48000000e-01,0.00000000e+00
6.50000000e-12,7.15482263e-01,4.55000000e-01,0.00000000e+00
6.60000000e-12,7.15292299e-01,4.62000000e-01,0.00000000e+00
6.70000000e-12,7.15102334e-01,4.69000000e-01,0.00000000e+00
6.80000000e-12,7.14912370e-01,4.76000000e-01,0.00000000e+00
6.90000000e-12,7.14722405e-01,4.83000000e-01,0.00000000e+00
7.00000000e-12,7.14532441e-01,4.90000000e-01,0.00000000e+00
7.10000000e-12,7.14342476e-01,4.97000000e-01,0.00000000e+00
7.20000000e-12,7.14152511e-01,5.04000000e-01,0.00000000e+00
7.30000000e-12,7.13962547e-01,5.11000000e-01,0.00000000e+00
7.40000000e-12,7.13772582e-01,5.18000000e-01,0.00000000e+00
7.50000000e-12,7.13582618e-01,5.25000000e-01,0.00000000e+00
7.60000000e-12,7.13392653e-01,5.32000000e-01,0.00000000e+00
7.70000000e-12,7.13217546e-01,5.39000000e-01,0.00000000e+00
7.80000000e-12,7.13098331e-01,5.46000000e-01,0.00000000e+00
7.90000000e-12,7.12979116e-01,5.53000000e-01,0.00000000e+00
8.00000000e-12,7.12853489e-01,5.60000000e-01,0.00000000e+00
8.10000000e-12,7.12717296e-01,5.67000000e-01,0.00000000e+00
8.20000000e-12,7.12581103e-01,5.74000000e-01,0.00000000e+00
8.30000000e-12,7.12439172e-01,5.81000000e-01,0.00000000e+00
8.40000000e-12,7.12292456e-01,5.88000000e-01,0.00000000e+00
8.50000000e-12,7.12145740e-01,5.95000000e-01,0.00000000e+00
8.60000000e-12,7.11999024e-01,6.02000000e-01,0.00000000e+00
8.70000000e-12,7.11852309e-01,6.09000000e-01,0.00000000e+00
8.80000000e-12,7.11705593e-01,6.16000000e-01,0.00000000e+00
8.90000000e-12,7.11551719e-01,6.23000000e-01,0.00000000e+00
9.00000000e-12,7.11396875e-01,6.30000000e-01,0.00000000e+00
9.10000000e-12,7.11242030e-01,6.37000000e-01,0.00000000e+00
9.20000000e-12,7.11087186e-01,6.44000000e-01,0.00000000e+00
9.30000000e-12,7.10932342e-01,6.51000000e-01,0.00000000e+00
9.40000000e-12,7.10778131e-01,6.58000000e-01,0.00000000e+00
9.50000000e-12,7.10626223e-01,6.65000000e-01,0.00000000e+00
9.60000000e-12,7.10474314e-01,6.72000000e-01,0.00000000e+00
9.70000000e-12,7.10322405e-01,6.79000000e-01,0.00000000e+00
9.80000000e-12,7.10170496e-01,6.86000000e-01,0.00000000e+00
9.90000000e-12,7.10018587e-01,6.93000000e-01,0.00000000e+00
1.00000000e-11,7.09870151e-01,7.00000000e-01,0.00000000e+00
1.01000000e-11,7.06869423e-01,7.00000000e-01,0.00000000e+00
1.02039612e-11,7.04299598e-01,7.00000000e-01,0.00000000e+00
1.03000000e-11,7.02707623e-01,7.00000000e-01,0.00000000e+00
1.04024100e-11,7.01010035e-01,7.00000000e-01,0.00000000e+00
1.05000000e-11,7.00110594e-01,7.00000000e-01,0.00000000e+00
1.06008588e-11,6.99181026e-01,7.00000000e-01,0.00000000e+00
1.07000000e-11,6.98694710e-01,7.00000000e-01,0.00000000e+00
1.07993076e-11,6.98207578e-01,7.00000000e-01,0.00000000e+00
1.09000000e-11,6.98024710e-01,7.00000000e-01,0.00000000e+00
1.10000000e-11,6.97843100e-01,7.00000000e-01,0.00000000e+00
1.11000000e-11,6.97661490e-01,7.00000000e-01,0.00000000e+00
1.11962051e-11,6.97486772e-01,7.00000000e-01,0.00000000e+00
1.13000000e-11,6.97512861e-01,7.00000000e-01,0.00000000e+00
1.14000000e-11,6.97537996e-01,7.00000000e-01,0.00000000e+00
1.15000000e-11,6.97563131e-01,7.00000000e-01,0.00000000e+00
1.16000000e-11,6.97588266e-01,7.00000000e-01,0.00000000e+00
1.17000000e-11,6.97613401e-01,7.00000000e-01,0.00000000e+00
1.18000000e-11,6.97638536e-01,7.00000000e-01,0.00000000e+00
1.19000000e-11,6.97663670e-01,7.00000000e-01,0.00000000e+00
1.20000000e-11,6.97692947e-01,7.00000000e-01,0.00000000e+00
1.21000000e-11,6.97759502e-01,7.00000000e-01,0.00000000e+00
1.22000000e-11,6.97826057e-01,7.00000000e-01,0.00000000e+00
1.23000000e-11,6.97892612e-01,7.00000000e-01,0.00000000e+00
1.24000000e-11,6.97959167e-01,7.00000000e-01,0.00000000e+00
1.25000000e-11,6.98025722e-01,7.00000000e-01,0.00000000e+00
1.26000000e-11,6.98092277e-01,7.00000000e-01,0.00000000e+00
1.27000000e-11,6.98158832e-01,7.00000000e-01,0.00000000e+00
1.28000000e-11,6.98221597e-01,7.00000000e-01,0.00000000e+00
1.29000000e-11,6.98264763e-01,7.00000000e-01,0.00000000e+00
1.30000000e-11,6.98307928e-01,7.00000000e-01,0.00000000e+00
1.31000000e-11,6.98351094e-01,7.00000000e-01,0.00000000e+00
1.32000000e-11,6.98394259e-01,7.00000000e-01,0.00000000e+00
1.33000000e-11,6.98437425e-01,7.00000000e-01,0.00000000e+00
1.34000000e-11,6.98480590e-01,7.00000000e-01,0.00000000e+00
1.35000000e-11,6.98523756e-01,7.00000000e-01,0.00000000e+00
1.36000000e-11,6.98563127e-01,7.00000000e-01,0.00000000e+00
1.37000000e-11,6.98589360e-01,7.00000000e-01,0.00000000e+00
1.38000000e-11,6.98615594e-01,7.00000000e-01,0.00000000e+00
1.39000000e-11,6.98641827e-01,7.00000000e-01,0.00000000e+00
1.40000000e-11,6.98668060e-01,7.00000000e-01,0.00000000e+00
1.41000000e-11,6.98694294e-01,7.00000000e-01,0.00000000e+00
1.42000000e-11,6.98720527e-01,7.00000000e-01,0.00000000e+00
1.43000000e-11,6.98746761e-01,7.00000000e-01,0.00000000e+00
1.44000000e-11,6.98772994e-01,7.00000000e-01,0.00000000e+00
1.45000000e-11,6.98799228e-01,7.00000000e-01,0.00000000e+00
1.46000000e-11,6.98825461e-01,7.00000000e-01,0.00000000e+00
1.47000000e-11,6.98851695e-01,7.00000000e-01,0.00000000e+00
1.48000000e-11,6.98877928e-01,7.00000000e-01,0.00000000e+00
1.49000000e-11,6.98904161e-01,7.00000000e-01,0.00000000e+00
1.50000000e-11,6.98930395e-01,7.00000000e-01,0.00000000e+00
1.51000000e-11,6.98956628e-01,7.00000000e-01,0.00000000e+00
1.52000000e-11,6.98977975e-01,7.00000000e-01,0.00000000e+00
1.53000000e-11,6.98990173e-01,7.00000000e-01,0.00000000e+00
1.54000000e-11,6.99002371e-01,7.00000000e-01,0.00000000e+00
1.55000000e-11,6.99014568e-01,7.00000000e-01,0.00000000e+00
1.56000000e-11,6.99026766e-01,7.00000000e-01,0.00000000e+00
1.57000000e-11,6.99038964e-01,7.00000000e-01,0.00000000e+00
1.58000000e-11,6.99051162e-01,7.00000000e-01,0.00000000e+00
1.59000000e-11,6.99063360e-01,7.00000000e-01,0.00000000e+00
1.60000000e-11,6.99075558e-01,7.00000000e-01,0.00000000e+00
1.61000000e-11,6.99087756e-01,7.00000000e-01,0.00000000e+00
1.62000000e-11,6.99099954e-01,7.00000000e-01,0.00000000e+00
1.63000000e-11,6.99112152e-01,7.00000000e-01,0.00000000e+00
1.64000000e-11,6.99124350e-01,7.00000000e-01,0.00000000e+00
1.65000000e-11,6.99136548e-01,7.00000000e-01,0.00000000e+00
1.66000000e-11,6.99148745e-01,7.00000000e-01,0.00000000e+00
1.67000000e-11,6.99160943e-01,7.00000000e-01,0.00000000e+00
1.68000000e-11,6.99173141e-01,7.00000000e-01,0.00000000e+00
1.69000000e-11,6.99185339e-01,7.00000000e-01,0.00000000e+00
1.70000000e-11,6.99197537e-01,7.00000000e-01,0.00000000e+00
1.71000000e-11,6.99209735e-01,7.00000000e-01,0.00000000e+00
1.72000000e-11,6.99221933e-01,7.00000000e-01,0.00000000e+00
1.73000000e-11,6.99234131e-01,7.00000000e-01,0.00000000e+00
1.74000000e-11,6.99246329e-01,7.00000000e-01,0.00000000e+00
1.75000000e-11,6.99258527e-01,7.00000000e-01,0.00000000e+00
1.76000000e-11,6.99270725e-01,7.00000000e-01,0.00000000e+00
1.77000000e-11,6.99282922e-01,7.00000000e-01,0.00000000e+00
1.78000000e-11,6.99295120e-01,7.00000000e-01,0.00000000e+00
1.79000000e-11,6.99307318e-01,7.00000000e-01,0.00000000e+00
1.80000000e-11,6.99319516e-01,7.00000000e-01,0.00000000e+00
1.81000000e-11,6.99331714e-01,7.00000000e-01,0.00000000e+00
1.82000000e-11,6.99343912e-01,7.00000000e-01,0.00000000e+00
1.83000000e-11,6.99356110e-01,7.00000000e-01,0.00000000e+00
1.84000000e-11,6.99364279e-01,7.00000000e-01,0.00000000e+00
1.85000000e-11,6.99369722e-01,7.00000000e-01,0.00000000e+00
1.86000000e-11,6.99375165e-01,7.00000000e-01,0.00000000e+00
1.87000000e-11,6.99380608e-01,7.00000000e-01,0.00000000e+00
1.88000000e-11,6.99386051e-01,7.00000000e-01,0.00000000e+00
1.89000000e-11,6.99391494e-01,7.00000000e-01,0.00000000e+00
1.90000000e-11,6.99396937e-01,7.00000000e-01,0.00000000e+00
1.91000000e-11,6.99402380e-01,7.00000000e-01,0.00000000e+00
1.92000000e-11,6.99407823e-01,7.00000000e-01,0.00000000e+00
1.93000000e-11,6.99413266e-01,7.00000000e-01,0.00000000e+00
1.94000000e-11,6.99418709e-01,7.00000000e-01,0.00000000e+00
1.95000000e-11,6.99424152e-01,7.00000000e-01,0.00000000e+00
1.96000000e-11,6.99429596e-01,7.00000000e-01,0.00000000e+00
1.97000000e-11,6.99435039e-01,7.00000000e-01,0.00000000e+00
1.98000000e-11,6.99440482e-01,7.00000000e-01,0.00000000e+00
1.99000000e-11,6.99445925e-01,7.00000000e-01,0.00000000e+00
2.00000000e-11,6.99451368e-01,7.00000000e-01,0.00000000e+00
2.01000000e-11,6.99456811e-01,7.00000000e-01,0.00000000e+00
2.02000000e-11,6.99462254e-01,7.00000000e-01,0.00000000e+00
2.03000000e-11,6.99467697e-01,7.00000000e-01,0.00000000e+00
2.04000000e-11,6.99473140e-01,7.00000000e-01,0.00000000e+00
2.05000000e-11,6.99478583e-01,7.00000000e-01,0.00000000e+00
2.06000000e-11,6.99484026e-01,7.00000000e-01,0.00000000e+00
2.07000000e-11,6.99489469e-01,7.00000000e-01,0.00000000e+00
2.08000000e-11,6.99494912e-01,7.00000000e-01,0.00000000e+00
2.09000000e-11,6.99500355e-01,7.00000000e-01,0.00000000e+00
2.10000000e-11,6.99505798e-01,7.00000000e-01,0.00000000e+00
2.11000000e-11,6.99511241e-01,7.00000000e-01,0.00000000e+00
2.12000000e-11,6.99516684e-01,7.00000000e-01,0.00000000e+00
2.13000000e-11,6.99522127e-01,7.00000000e-01,0.00000000e+00
2.14000000e-11,6.99527570e-01,7.00000000e-01,0.00000000e+00
2.15000000e-11,6.99533013e-01,7.00000000e-01,0.00000000e+00
2.16000000e-11,6.99536585e-01,7.00000000e-01,0.00000000e+00
2.17000000e-11,6.99539813e-01,7.00000000e-01,0.00000000e+00
2.18000000e-11,6.99543042e-01,7.00000000e-01,0.00000000e+00
2.19000000e-11,6.99546270e-01,7.00000000e-01,0.00000000e+00
2.20000000e-11,6.99549498e-01,7.00000000e-01,0.00000000e+00
2.21000000e-11,6.99552726e-01,7.00000000e-01,0.00000000e+00
2.22000000e-11,6.99555954e-01,7.00000000e-01,0.00000000e+00
2.23000000e-11,6.99559182e-01,7.00000000e-01,0.00000000e+00
2.24000000e-11,6.99562411e-01,7.00000000e-01,0.00000000e+00
2.25000000e-11,6.99565639e-01,7.00000000e-01,0.00000000e+00
2.26000000e-11,6.99568867e-01,7.00000000e-01,0.00000000e+00
2.27000000e-11,6.99572095e-01,7.00000000e-01,0.00000000e+00
2.28000000e-11,6.99575323e-01,7.00000000e-01,0.00000000e+00
2.29000000e-11,6.99578551e-01,7.00000000e-01,0.00000000e+00
2.30000000e-11,6.99581779e-01,7.00000000e-01,0.00000000e+00
2.31000000e-11,6.99585008e-01,7.00000000e-01,0.00000000e+00
2.32000000e-11,6.99588236e-01,7.00000000e-01,0.00000000e+00
2.33000000e-11,6.99591464e-01,7.00000000e-01,0.00000000e+00
2.34000000e-11,6.99594692e-01,7.00000000e-01,0.00000000e+00
2.35000000e-11,6.99597920e-01,7.00000000e-01,0.00000000e+00
2.36000000e-11,6.99601148e-01,7.00000000e-01,0.00000000e+00
2.37000000e-11,6.99604377e-01,7.00000000e-01,0.00000000e+00
2.38000000e-11,6.99607605e-01,7.00000000e-01,0.00000000e+00
2.39000000e-11,6.99610833e-01,7.00000000e-01,0.00000000e+00
2.40000000e-11,6.99614061e-01,7.00000000e-01,0.00000000e+00
2.41000000e-11,6.99617289e-01,7.00000000e-01,0.00000000e+00
2.42000000e-11,6.99620517e-01,7.00000000e-01,0.00000000e+00
2.43000000e-11,6.99623746e-01,7.00000000e-01,0.00000000e+00
2.44000000e-11,6.99626974e-01,7.00000000e-01,0.00000000e+00
2.45000000e-11,6.99630202e-01,7.00000000e-01,0.00000000e+00
2.46000000e-11,6.99633430e-01,7.00000000e-01,0.00000000e+00
2.47000000e-11,6.99636522e-01,7.00000000e-01,0.00000000e+00
2.48000000e-11,6.99638282e-01,7.00000000e-01,0.00000000e+00
2.49000000e-11,6.99640042e-01,7.00000000e-01,0.00000000e+00
2.50000000e-11,6.99641801e-01,7.00000000e-01,0.00000000e+00
2.51000000e-11,6.99643561e-01,7.00000000e-01,0.00000000e+00
2.52000000e-11,6.99645321e-01,7.00000000e-01,0.00000000e+00
2.53000000e-11,6.99647081e-01,7.00000000e-01,0.00000000e+00
2.54000000e-11,6.99648841e-01,7.00000000e-01,0.00000000e+00
2.55000000e-11,6.99650601e-01,7.00000000e-01,0.00000000e+00
2.56000000e-11,6.99652360e-01,7.00000000e-01,0.00000000e+00
2.57000000e-11,6.99654120e-01,7.00000000e-01,0.00000000e+00
2.58000000e-11,6.99655880e-01,7.00000000e-01,0.00000000e+00
2.59000000e-11,6.99657640e-01,7.00000000e-01,0.00000000e+00
2.60000000e-11,6.99659400e-01,7.00000000e-01,0.00000000e+00
2.61000000e-11,6.99661160e-01,7.00000000e-01,0.00000000e+00
2.62000000e-11,6.99662920e-01,7.00000000e-01,0.00000000e+00
2.63000000e-11,6.99664679e-01,7.00000000e-01,0.00000000e+00
2.64000000e-11,6.99666439e-01,7.00000000e-01,0.00000000e+00
2.65000000e-11,6.99668199e-01,7.00000000e-01,0.00000000e+00
2.66000000e-11,6.99669959e-01,7.00000000e-01,0.00000000e+00
2.67000000e-11,6.99671719e-01,7.00000000e-01,0.00000000e+00
2.68000000e-11,6.99673479e-01,7.00000000e-01,0.00000000e+00
2.69000000e-11,6.99675238e-01,7.00000000e-01,0.00000000e+00
2.70000000e-11,6.99676998e-01,7.00000000e-01,0.00000000e+00
2.71000000e-11,6.99678758e-01,7.00000000e-01,0.00000000e+00
2.72000000e-11,6.99680518e-01,7.00000000e-01,0.00000000e+00
2.73000000e-11,6.99682278e-01,7.00000000e-01,0.00000000e+00
2.74000000e-11,6.99684038e-01,7.00000000e-01,0.00000000e+00
2.75000000e-11,6.99685798e-01,7.00000000e-01,0.00000000e+00
2.76000000e-11,6.99687557e-01,7.00000000e-01,0.00000000e+00
2.77000000e-11,6.99689317e-01,7.00000000e-01,0.00000000e+00
2.78000000e-11,6.99691077e-01,7.00000000e-01,0.00000000e+00
2.79000000e-11,6.99692837e-01,7.00000000e-01,0.00000000e+00
2.80000000e-11,6.99694597e-01,7.00000000e-01,0.00000000e+00
2.81000000e-11,6.99696357e-01,7.00000000e-01,0.00000000e+00
2.82000000e-11,6.99698116e-01,7.00000000e-01,0.00000000e+00
2.83000000e-11,6.99699876e-01,7.00000000e-01,0.00000000e+00
2.84000000e-11,6.99701636e-01,7.00000000e-01,0.00000000e+00
2.85000000e-11,6.99703396e-01,7.00000000e-01,0.00000000e+00
2.86000000e-11,6.99705156e-01,7.00000000e-01,0.00000000e+00
2.87000000e-11,6.99706916e-01,7.00000000e-01,0.00000000e+00
2.88000000e-11,6.99708676e-01,7.00000000e-01,0.00000000e+00
2.89000000e-11,6.99710435e-01,7.00000000e-01,0.00000000e+00
2.90000000e-11,6.99712195e-01,7.00000000e-01,0.00000000e+00
2.91000000e-11,6.99713955e-01,7.00000000e-01,0.00000000e+00
2.92000000e-11,6.99715715e-01,7.00000000e-01,0.00000000e+00
2.93000000e-11,6.99717475e-01,7.00000000e-01,0.00000000e+00
2.94000000e-11,6.99719235e-01,7.00000000e-01,0.00000000e+00
2.95000000e-11,6.99720994e-01,7.00000000e-01,0.00000000e+00
2.96000000e-11,6.99722754e-01,7.00000000e-01,0.00000000e+00
2.97000000e-11,6.99724514e-01,7.00000000e-01,0.00000000e+00
2.98000000e-11,6.99726274e-01,7.00000000e-01,0.00000000e+00
2.99000000e-11,6.99728034e-01,7.00000000e-01,0.00000000e+00
3.00000000e-11,6.99729794e-01,7.00000000e-01,0.00000000e+00
3.01000000e-11,6.99731553e-01,7.00000000e-01,0.00000000e+00
3.02000000e-11,6.99733313e-01,7.00000000e-01,0.00000000e+00
3.03000000e-11,6.99735073e-01,7.00000000e-01,0.00000000e+00
3.04000000e-11,6.99736833e-01,7.00000000e-01,0.00000000e+00
3.05000000e-11,6.99738593e-01,7.00000000e-01,0.00000000e+00
3.06000000e-11,6.99740353e-01,7.00000000e-01,0.00000000e+00
3.07000000e-11,6.99742113e-01,7.00000000e-01,0.00000000e+00
3.08000000e-11,6.99743872e-01,7.00000000e-01,0.00000000e+00
3.09000000e-11,6.99745632e-01,7.00000000e-01,0.00000000e+00
3.10000000e-11,6.99747392e-01,7.00000000e-01,0.00000000e+00
3.11000000e-11,6.99748666e-01,7.00000000e-01,0.00000000e+00
3.12000000e-11,6.99749600e-01,7.00000000e-01,0.00000000e+00
3.13000000e-11,6.99750534e-01,7.00000000e-01,0.00000000e+00
3.14000000e-11,6.99751469e-01,7.00000000e-01,0.00000000e+00
3.15000000e-11,6.99752403e-01,7.00000000e-01,0.00000000e+00
3.16000000e-11,6.99753338e-01,7.00000000e-01,0.00000000e+00
3.17000000e-11,6.99754272e-01,7.00000000e-01,0.00000000e+00
3.18000000e-11,6.99755206e-01,7.00000000e-01,0.00000000e+00
3.19000000e-11,6.99756141e-01,7.00000000e-01,0.00000000e+00
3.20000000e-11,6.99757075e-01,7.00000000e-01,0.00000000e+00
3.21000000e-11,6.99758009e-01,7.00000000e-01,0.00000000e+00
3.22000000e-11,6.99758944e-01,7.00000000e-01,0.00000000e+00
3.23000000e-11,6.99759878e-01,7.00000000e-01,0.00000000e+00
3.24000000e-11,6.99760813e-01,7.00000000e-01,0.00000000e+00
3.25000000e-11,6.99761747e-01,7.00000000e-01,0.00000000e+00
3.26000000e-11,6.99762681e-01,7.00000000e-01,0.00000000e+00
3.27000000e-11,6.99763616e-01,7.00000000e-01,0.00000000e+00
3.28000000e-11,6.99764550e-01,7.00000000e-01,0.00000000e+00
3.29000000e-11,6.99765485e-01,7.00000000e-01,0.00000000e+00
3.30000000e-11,6.99766419e-01,7.00000000e-01,0.00000000e+00
3.31000000e-11,6.99767353e-01,7.00000000e-01,0.00000000e+00
