TIME,V(OUT),V(IN)
0.00000000e+00,8.99999525e-01,0.00000000e+00
1.00000000e-15,8.99999525e-01,0.00000000e+00
3.00000000e-15,8.99999525e-01,0.00000000e+00
7.00000000e-15,8.99999525e-01,0.00000000e+00
1.50000000e-14,8.99999525e-01,0.00000000e+00
3.10000000e-14,8.99999525e-01,0.00000000e+00
6.30000000e-14,8.99999525e-01,0.00000000e+00
1.27000000e-13,8.99999525e-01,0.00000000e+00
2.55000000e-13,8.99999525e-01,0.00000000e+00
5.11000000e-13,8.99999525e-01,0.00000000e+00
1.02300000e-12,8.99999525e-01,0.00000000e+00
2.04700000e-12,8.99999525e-01,0.00000000e+00
4.09500000e-12,8.99999525e-01,0.00000000e+00
8.19100000e-12,8.99999525e-01,0.00000000e+00
1.63830000e-11,8.99999525e-01,0.00000000e+00
2.63830000e-11,8.99999525e-01,0.00000000e+00
3.63830000e-11,8.99999525e-01,0.00000000e+00
4.63830000e-11,8.99999525e-01,0.00000000e+00
5.63830000e-11,8.99999525e-01,0.00000000e+00
6.63830000e-11,8.99999525e-01,0.00000000e+00
7.63830000e-11,8.99999525e-01,0.00000000e+00
8.63830000e-11,8.99999525e-01,0.00000000e+00
9.63830000e-11,8.99999525e-01,0.00000000e+00
1.00000000e-10,8.99999525e-01,0.00000000e+00
1.00062500e-10,9.02891230e-01,5.62500000e-03
1.00125000e-10,9.05555746e-01,1.12500000e-02
1.00250000e-10,9.10470310e-01,2.25000000e-02
1.00500000e-10,9.18385930e-01,4.50000000e-02
1.00750000e-10,9.24463385e-01,6.75000000e-02
1.01250000e-10,9.33751983e-01,1.12500000e-01
1.01750000e-10,9.41345803e-01,1.57500000e-01
1.02750000e-10,9.58009144e-01,2.47500000e-01
1.03750000e-10,9.79944857e-01,3.37500000e-01
1.04750000e-10,1.00359913e+00,4.27500000e-01
1.05291758e-10,1.00900404e+00,4.76258197e-01
1.05581278e-10,1.00868095e+00,5.02315019e-01
1.05870798e-10,1.00634787e+00,5.28371841e-01
1.06449839e-10,9.87645346e-01,5.80485485e-01
1.06963321e-10,9.53444332e-01,6.26698933e-01
1.07425456e-10,9.07361316e-01,6.68291037e-01
1.07887590e-10,8.46018245e-01,7.09883140e-01
1.08349725e-10,7.68829471e-01,7.51475244e-01
1.08811859e-10,6.77102215e-01,7.93067347e-01
1.09273994e-10,5.74062492e-01,8.34659451e-01
1.09736128e-10,4.61933536e-01,8.76251555e-01
1.10000000e-10,3.94343932e-01,9.00000000e-01
1.10022540e-10,3.87593424e-01,9.00000000e-01
1.10041913e-10,3.81828727e-01,9.00000000e-01
1.10080659e-10,3.70354219e-01,9.00000000e-01
1.10158150e-10,3.47743996e-01,9.00000000e-01
1.10313133e-10,3.03942959e-01,9.00000000e-01
1.10623100e-10,2.23130274e-01,9.00000000e-01
1.10933066e-10,1.54411799e-01,9.00000000e-01
1.11243032e-10,1.01341316e-01,9.00000000e-01
1.11552999e-10,6.41929648e-02,9.00000000e-01
1.11862965e-10,4.00563831e-02,9.00000000e-01
1.12172931e-10,2.49648788e-02,9.00000000e-01
1.12482898e-10,1.56012556e-02,9.00000000e-01
1.13102830e-10,5.80647720e-03,9.00000000e-01
1.13722763e-10,2.16699190e-03,9.00000000e-01
1.14342696e-10,8.09506944e-04,9.00000000e-01
1.15582561e-10,3.75623298e-05,9.00000000e-01
1.16822426e-10,1.90082885e-06,9.00000000e-01
1.19302157e-10,-3.80069434e-07,9.00000000e-01
1.21781887e-10,3.45420248e-07,9.00000000e-01
1.26741348e-10,4.40004236e-08,9.00000000e-01
1.36660271e-10,2.49415682e-07,9.00000000e-01
1.41619732e-10,1.67137236e-07,9.00000000e-01
1.44099462e-10,1.60218849e-07,9.00000000e-01
1.49058924e-10,1.57242377e-07,9.00000000e-01
1.49678856e-10,1.57757612e-07,9.00000000e-01
1.50066608e-10,4.62255870e-03,9.00000000e-01
1.50211872e-10,1.07706074e-02,9.00000000e-01
1.50357135e-10,1.88632150e-02,9.00000000e-01
1.50647663e-10,4.42965050e-02,9.00000000e-01
1.50938191e-10,7.85035082e-02,9.00000000e-01
1.51228718e-10,1.17607463e-01,9.00000000e-01
1.51809774e-10,2.05000477e-01,9.00000000e-01
1.51992850e-10,2.35640565e-01,9.00000000e-01
1.52175926e-10,2.67026200e-01,9.00000000e-01
1.52542078e-10,3.34080840e-01,9.00000000e-01
1.52908230e-10,4.05961763e-01,9.00000000e-01
1.53274382e-10,4.81088769e-01,9.00000000e-01
1.54006687e-10,6.34411883e-01,9.00000000e-01
1.54738991e-10,7.85148629e-01,9.00000000e-01
1.55471295e-10,9.25703252e-01,9.00000000e-01
1.56203600e-10,1.04988543e+00,9.00000000e-01
1.56862674e-10,1.14593702e+00,9.00000000e-01
1.57521748e-10,1.22747367e+00,9.00000000e-01
1.58180822e-10,1.29455156e+00,9.00000000e-01
1.58839896e-10,1.34504589e+00,9.00000000e-01
1.59498970e-10,1.37674373e+00,9.00000000e-01
1.60158044e-10,1.39281417e+00,9.00000000e-01
1.60817117e-10,1.39961255e+00,9.00000000e-01
1.62135265e-10,1.40366562e+00,9.00000000e-01
1.63453413e-10,1.40409268e+00,9.00000000e-01
1.64503620e-10,1.40428309e+00,9.00000000e-01
1.65186658e-10,1.39683159e+00,9.00000000e-01
1.65467802e-10,1.38797509e+00,9.00000000e-01
1.65748947e-10,1.37657812e+00,9.00000000e-01
1.66311236e-10,1.34065227e+00,9.00000000e-01
1.66873525e-10,1.28836283e+00,9.00000000e-01
1.67435814e-10,1.22114861e+00,9.00000000e-01
1.67998103e-10,1.14104915e+00,9.00000000e-01
1.68560392e-10,1.04999226e+00,9.00000000e-01
1.69122681e-10,9.49519215e-01,9.00000000e-01
1.69684970e-10,8.41883903e-01,9.00000000e-01
1.70247259e-10,7.30551440e-01,9.00000000e-01
1.71371838e-10,5.09440826e-01,9.00000000e-01
1.72383958e-10,3.21660236e-01,9.00000000e-01
1.72539404e-10,2.94784727e-01,9.00000000e-01
1.72694851e-10,2.68308692e-01,9.00000000e-01
1.73005744e-10,2.18471039e-01,9.00000000e-01
1.73316637e-10,1.74256726e-01,9.00000000e-01
1.73627530e-10,1.37316441e-01,9.00000000e-01
1.73938422e-10,1.08160971e-01,9.00000000e-01
1.74249315e-10,8.60989381e-02,9.00000000e-01
1.74560208e-10,6.98081841e-02,9.00000000e-01
1.74871101e-10,5.78651314e-02,9.00000000e-01
1.75181994e-10,4.90410408e-02,9.00000000e-01
1.75803780e-10,3.70833320e-02,9.00000000e-01
1.77047352e-10,2.41674944e-02,9.00000000e-01
1.79534495e-10,1.23875251e-02,9.00000000e-01
1.81772924e-10,7.10316863e-03,9.00000000e-01
1.86249782e-10,2.19065309e-03,9.00000000e-01
1.90726640e-10,7.71216809e-04,9.00000000e-01
1.99680357e-10,2.98415414e-05,9.00000000e-01
2.08634073e-10,4.19363656e-05,9.00000000e-01
2.10000000e-10,6.08440888e-06,9.00000000e-01
2.10062500e-10,-2.39643356e-03,8.94375000e-01
2.10125000e-10,-4.55703302e-03,8.88750000e-01
2.10250000e-10,-8.46192015e-03,8.77500000e-01
2.10500000e-10,-1.43344475e-02,8.55000000e-01
2.10750000e-10,-1.84141409e-02,8.32500000e-01
2.11250000e-10,-2.39816754e-02,7.87500000e-01
2.11750000e-10,-2.81276301e-02,7.42500000e-01
2.12750000e-10,-3.82714141e-02,6.52500000e-01
2.13750000e-10,-5.42758960e-02,5.62500000e-01
2.14750000e-10,-7.09213497e-02,4.72500000e-01
2.14888287e-10,-7.22838552e-02,4.60054209e-01
2.15164860e-10,-7.35852130e-02,4.35162627e-01
2.15718006e-10,-6.42651280e-02,3.85379462e-01
2.16206418e-10,-3.93831031e-02,3.41422383e-01
2.16645989e-10,-2.19668713e-03,3.01861012e-01
2.17085560e-10,4.85311434e-02,2.62299641e-01
2.17525130e-10,1.12021515e-01,2.22738271e-01
2.17964701e-10,1.86902998e-01,1.83176900e-01
2.18404272e-10,2.70188532e-01,1.43615529e-01
2.18843843e-10,3.58660703e-01,1.04054158e-01
2.19722984e-10,5.45739504e-01,2.49314161e-02
2.20000000e-10,6.06493886e-01,6.66133815e-16
2.20045013e-10,6.18174965e-01,0.00000000e+00
2.20079389e-10,6.26912747e-01,0.00000000e+00
2.20148142e-10,6.44018975e-01,0.00000000e+00
2.20285647e-10,6.76039440e-01,0.00000000e+00
2.20423152e-10,7.05109197e-01,0.00000000e+00
2.20560657e-10,7.31231043e-01,0.00000000e+00
2.20698162e-10,7.54472090e-01,0.00000000e+00
2.20835667e-10,7.74955591e-01,0.00000000e+00
2.20973171e-10,7.92852401e-01,0.00000000e+00
2.21110676e-10,8.08362176e-01,0.00000000e+00
2.21248181e-10,8.21707472e-01,0.00000000e+00
2.21523191e-10,8.42917924e-01,0.00000000e+00
2.21798201e-10,8.58195651e-01,0.00000000e+00
2.22073211e-10,8.69177909e-01,0.00000000e+00
2.22348221e-10,8.77131179e-01,0.00000000e+00
2.22898241e-10,8.87391879e-01,0.00000000e+00
2.23998281e-10,8.96484694e-01,0.00000000e+00
2.26198361e-10,9.00203377e-01,0.00000000e+00
2.28178433e-10,8.99981353e-01,0.00000000e+00
2.30158505e-10,9.00005362e-01,0.00000000e+00
2.32138576e-10,8.99999106e-01,0.00000000e+00
2.36098720e-10,8.99999665e-01,0.00000000e+00
2.44019007e-10,8.99999462e-01,0.00000000e+00
2.59859582e-10,8.99999569e-01,0.00000000e+00
2.89859582e-10,8.99999491e-01,0.00000000e+00
2.97359582e-10,8.99999518e-01,0.00000000e+00
2.98297082e-10,8.99999521e-01,0.00000000e+00
2.99349765e-10,8.99999523e-01,0.00000000e+00
2.99876106e-10,8.99999524e-01,0.00000000e+00
2.99955513e-10,8.99999524e-01,0.00000000e+00
3.00114327e-10,8.98002691e-01,0.00000000e+00
3.00273140e-10,8.91647819e-01,0.00000000e+00
3.00431954e-10,8.80896514e-01,0.00000000e+00
3.00590768e-10,8.66340073e-01,0.00000000e+00
3.00749581e-10,8.48475441e-01,0.00000000e+00
3.00908395e-10,8.27951782e-01,0.00000000e+00
3.01226022e-10,7.81940080e-01,0.00000000e+00
3.01861277e-10,6.80537247e-01,0.00000000e+00
3.03131786e-10,4.63462517e-01,0.00000000e+00
3.04402296e-10,2.54972361e-01,0.00000000e+00
3.04559732e-10,2.31663140e-01,0.00000000e+00
3.04717168e-10,2.08650044e-01,0.00000000e+00
3.05032040e-10,1.64865106e-01,0.00000000e+00
3.05346913e-10,1.24198003e-01,0.00000000e+00
3.05661785e-10,8.67902181e-02,0.00000000e+00
3.05976657e-10,5.27377261e-02,0.00000000e+00
3.06291530e-10,2.20791364e-02,0.00000000e+00
3.06606402e-10,-5.21525437e-03,0.00000000e+00
3.06921274e-10,-2.92434380e-02,0.00000000e+00
3.07236146e-10,-5.01677716e-02,0.00000000e+00
3.07551019e-10,-6.82010076e-02,0.00000000e+00
3.07865891e-10,-8.35942764e-02,0.00000000e+00
3.08180763e-10,-9.66199700e-02,0.00000000e+00
3.08495635e-10,-1.07558957e-01,0.00000000e+00
3.09125380e-10,-1.24360927e-01,0.00000000e+00
3.09755125e-10,-1.35817804e-01,0.00000000e+00
3.10384869e-10,-1.43539177e-01,0.00000000e+00
3.11014614e-10,-1.48720683e-01,0.00000000e+00
3.12274103e-10,-1.54698844e-01,0.00000000e+00
3.14793081e-10,-1.58849952e-01,0.00000000e+00
3.14950517e-10,-1.58911133e-01,0.00000000e+00
3.15265389e-10,-1.52609274e-01,0.00000000e+00
3.15580262e-10,-1.34262298e-01,0.00000000e+00
3.15863647e-10,-1.09362029e-01,0.00000000e+00
3.16147032e-10,-7.86234559e-02,0.00000000e+00
3.16430417e-10,-4.34117187e-02,0.00000000e+00
3.16713802e-10,-4.75499657e-03,0.00000000e+00
3.16997187e-10,3.64908659e-02,0.00000000e+00
3.17563957e-10,1.23546780e-01,0.00000000e+00
3.18697497e-10,3.00749377e-01,0.00000000e+00
3.19831037e-10,4.68854103e-01,0.00000000e+00
3.20851224e-10,6.02169619e-01,0.00000000e+00
3.21718897e-10,6.93701824e-01,0.00000000e+00
3.22446802e-10,7.50435557e-01,0.00000000e+00
3.23101916e-10,7.86623156e-01,0.00000000e+00
3.23757031e-10,8.12095153e-01,0.00000000e+00
3.24412145e-10,8.30169363e-01,0.00000000e+00
3.25067260e-10,8.43369519e-01,0.00000000e+00
3.25722375e-10,8.53365112e-01,0.00000000e+00
3.27032604e-10,8.67596693e-01,0.00000000e+00
3.29653062e-10,8.83707379e-01,0.00000000e+00
3.32273520e-10,8.91531568e-01,0.00000000e+00
3.34893979e-10,8.95621594e-01,0.00000000e+00
3.40134895e-10,8.98906320e-01,0.00000000e+00
3.45375812e-10,8.99666831e-01,0.00000000e+00
3.55857645e-10,9.00008534e-01,0.00000000e+00
3.66339478e-10,8.99977283e-01,0.00000000e+00
3.87303144e-10,9.00017005e-01,0.00000000e+00
4.00000000e-10,8.99986358e-01,0.00000000e+00
4.00062500e-10,9.02876358e-01,5.62500000e-03
4.00125000e-10,9.05542007e-01,1.12500000e-02
4.00250000e-10,9.10458625e-01,2.25000000e-02
4.00500000e-10,9.18377377e-01,4.50000000e-02
4.00750000e-10,9.24457005e-01,6.75000000e-02
4.01250000e-10,9.33748294e-01,1.12500000e-01
4.01750000e-10,9.41343510e-01,1.57500000e-01
4.02750000e-10,9.58008125e-01,2.47500000e-01
4.03750000e-10,9.79944243e-01,3.37500000e-01
4.04750000e-10,1.00359867e+00,4.27500000e-01
4.05291759e-10,1.00900360e+00,4.76258277e-01
4.05581279e-10,1.00868051e+00,5.02315114e-01
4.05870799e-10,1.00634744e+00,5.28371951e-01
4.06449840e-10,9.87644888e-01,5.80485625e-01
4.06963323e-10,9.53443857e-01,6.26699068e-01
4.07425457e-10,9.07360824e-01,6.68291166e-01
4.07887592e-10,8.46017733e-01,7.09883264e-01
4.08349726e-10,7.68828943e-01,7.51475363e-01
4.08811861e-10,6.77101685e-01,7.93067461e-01
4.09273995e-10,5.74061973e-01,8.34659559e-01
4.09736130e-10,4.61933033e-01,8.76251657e-01
4.10000000e-10,3.94343729e-01,9.00000000e-01
4.10022540e-10,3.87593222e-01,9.00000000e-01
4.10041913e-10,3.81828526e-01,9.00000000e-01
4.10080659e-10,3.70354019e-01,9.00000000e-01
4.10158150e-10,3.47743799e-01,9.00000000e-01
4.10313133e-10,3.03942769e-01,9.00000000e-01
4.10623100e-10,2.23130103e-01,9.00000000e-01
4.10933066e-10,1.54411658e-01,9.00000000e-01
4.11243032e-10,1.01341211e-01,9.00000000e-01
4.11552999e-10,6.41928929e-02,9.00000000e-01
4.11862965e-10,4.00563368e-02,9.00000000e-01
4.12172931e-10,2.49648495e-02,9.00000000e-01
4.12482898e-10,1.56012371e-02,9.00000000e-01
4.13102830e-10,5.80647005e-03,9.00000000e-01
4.13722763e-10,2.16698913e-03,9.00000000e-01
4.14342696e-10,8.09505863e-04,9.00000000e-01
4.15582561e-10,3.75622569e-05,9.00000000e-01
4.16822426e-10,1.90082055e-06,9.00000000e-01
4.19302157e-10,-3.80070671e-07,9.00000000e-01
4.21781888e-10,3.45418697e-07,9.00000000e-01
4.26741349e-10,4.40002632e-08,9.00000000e-01
4.36660272e-10,2.49415502e-07,9.00000000e-01
4.56498117e-10,7.66096953e-08,9.00000000e-01
4.86498117e-10,2.34508449e-07,9.00000000e-01
5.10000000e-10,8.85038145e-08,9.00000000e-01
5.10062500e-10,-2.40312413e-03,8.94375000e-01
5.10125000e-10,-4.56353655e-03,8.88750000e-01
5.10250000e-10,-8.46808732e-03,8.77500000e-01
5.10500000e-10,-1.43401041e-02,8.55000000e-01
5.10750000e-10,-1.84194394e-02,8.32500000e-01
5.11250000e-10,-2.39865183e-02,7.87500000e-01
5.11750000e-10,-2.81322502e-02,7.42500000e-01
5.12750000e-10,-3.82761098e-02,6.52500000e-01
5.13750000e-10,-5.42813358e-02,5.62500000e-01
5.14750000e-10,-7.09277847e-02,4.72500000e-01
5.14888285e-10,-7.22903969e-02,4.60054386e-01
5.15164854e-10,-7.35919705e-02,4.35163159e-01
5.15717992e-10,-6.42724127e-02,3.85380705e-01
5.16206399e-10,-3.93909577e-02,3.41424106e-01
5.16645965e-10,-2.20523279e-03,3.01863167e-01
5.17085531e-10,4.85216618e-02,2.62302228e-01
5.17525097e-10,1.12010848e-01,2.22741289e-01
5.17964663e-10,1.86891079e-01,1.83180350e-01
5.18404229e-10,2.70175555e-01,1.43619411e-01
5.18843795e-10,3.58646761e-01,1.04058472e-01
5.19722927e-10,5.45723717e-01,2.49365941e-02
5.20000000e-10,6.06490946e-01,5.32907052e-15
5.20045012e-10,6.18171977e-01,0.00000000e+00
5.20079388e-10,6.26909735e-01,0.00000000e+00
5.20148140e-10,6.44015923e-01,0.00000000e+00
5.20285644e-10,6.76036352e-01,0.00000000e+00
5.20423148e-10,7.05106130e-01,0.00000000e+00
5.20560652e-10,7.31228048e-01,0.00000000e+00
5.20698156e-10,7.54469208e-01,0.00000000e+00
5.20835660e-10,7.74952856e-01,0.00000000e+00
5.20973164e-10,7.92849836e-01,0.00000000e+00
5.21110668e-10,8.08359795e-01,0.00000000e+00
5.21248172e-10,8.21705282e-01,0.00000000e+00
5.21523180e-10,8.42916106e-01,0.00000000e+00
5.21798188e-10,8.58194161e-01,0.00000000e+00
5.22073196e-10,8.69176686e-01,0.00000000e+00
5.22348204e-10,8.77130165e-01,0.00000000e+00
5.22898220e-10,8.87391164e-01,0.00000000e+00
5.23998252e-10,8.96484310e-01,0.00000000e+00
5.26198316e-10,9.00203226e-01,0.00000000e+00
5.28178373e-10,8.99981285e-01,0.00000000e+00
5.30158430e-10,9.00005312e-01,0.00000000e+00
5.32138487e-10,8.99999080e-01,0.00000000e+00
5.36098602e-10,8.99999653e-01,0.00000000e+00
5.44018831e-10,8.99999462e-01,0.00000000e+00
5.59859290e-10,8.99999568e-01,0.00000000e+00
5.89859290e-10,8.99999492e-01,0.00000000e+00
6.19859290e-10,8.99999551e-01,0.00000000e+00
6.49859290e-10,8.99999507e-01,0.00000000e+00
6.79859290e-10,8.99999537e-01,0.00000000e+00
7.00000000e-10,8.99999521e-01,0.00000000e+00
7.00062500e-10,9.02891191e-01,5.62500000e-03
7.00125000e-10,9.05555709e-01,1.12500000e-02
7.00250000e-10,9.10470278e-01,2.25000000e-02
7.00500000e-10,9.18385907e-01,4.50000000e-02
7.00750000e-10,9.24463367e-01,6.75000000e-02
7.01250000e-10,9.33751973e-01,1.12500000e-01
7.01750000e-10,9.41345797e-01,1.57500000e-01
7.02750000e-10,9.58009141e-01,2.47500000e-01
7.03750000e-10,9.79944855e-01,3.37500000e-01
7.04750000e-10,1.00359913e+00,4.27500000e-01
7.05291758e-10,1.00900404e+00,4.76258197e-01
7.05581278e-10,1.00868095e+00,5.02315019e-01
7.05870798e-10,1.00634787e+00,5.28371841e-01
7.06449839e-10,9.87645345e-01,5.80485485e-01
7.06963321e-10,9.53444330e-01,6.26698934e-01
7.07425456e-10,9.07361314e-01,6.68291037e-01
7.07887590e-10,8.46018243e-01,7.09883141e-01
7.08349725e-10,7.68829470e-01,7.51475244e-01
7.08811859e-10,6.77102214e-01,7.93067348e-01
7.09273994e-10,5.74062490e-01,8.34659451e-01
7.09736128e-10,4.61933534e-01,8.76251555e-01
7.10000000e-10,3.94343931e-01,9.00000000e-01
7.10022540e-10,3.87593423e-01,9.00000000e-01
7.10041913e-10,3.81828727e-01,9.00000000e-01
7.10080659e-10,3.70354219e-01,9.00000000e-01
7.10158150e-10,3.47743995e-01,9.00000000e-01
7.10313133e-10,3.03942959e-01,9.00000000e-01
7.10623100e-10,2.23130273e-01,9.00000000e-01
7.10933066e-10,1.54411799e-01,9.00000000e-01
7.11243032e-10,1.01341316e-01,9.00000000e-01
7.11552999e-10,6.41929646e-02,9.00000000e-01
7.11862965e-10,4.00563830e-02,9.00000000e-01
7.12172931e-10,2.49648787e-02,9.00000000e-01
7.12482898e-10,1.56012556e-02,9.00000000e-01
7.13102830e-10,5.80647718e-03,9.00000000e-01
7.13722763e-10,2.16699189e-03,9.00000000e-01
7.14342696e-10,8.09506940e-04,9.00000000e-01
7.15582561e-10,3.75623296e-05,9.00000000e-01
7.16822426e-10,1.90082884e-06,9.00000000e-01
7.19302157e-10,-3.80069430e-07,9.00000000e-01
7.21781887e-10,3.45420246e-07,9.00000000e-01
7.26741348e-10,4.40004244e-08,9.00000000e-01
7.36660271e-10,2.49415681e-07,9.00000000e-01
7.56498115e-10,7.66095569e-08,9.00000000e-01
7.86498115e-10,2.34508580e-07,9.00000000e-01
8.10000000e-10,8.85036915e-08,9.00000000e-01
8.10062500e-10,-2.40312413e-03,8.94375000e-01
8.10125000e-10,-4.56353655e-03,8.88750000e-01
8.10250000e-10,-8.46808732e-03,8.77500000e-01
8.10500000e-10,-1.43401041e-02,8.55000000e-01
8.10750000e-10,-1.84194394e-02,8.32500000e-01
8.11250000e-10,-2.39865183e-02,7.87500000e-01
8.11750000e-10,-2.81322502e-02,7.42500000e-01
8.12750000e-10,-3.82761098e-02,6.52500000e-01
8.13750000e-10,-5.42813358e-02,5.62500000e-01
8.14750000e-10,-7.09277847e-02,4.72500000e-01
8.14888285e-10,-7.22903969e-02,4.60054386e-01
8.15164854e-10,-7.35919705e-02,4.35163159e-01
8.15717992e-10,-6.42724127e-02,3.85380705e-01
8.16206399e-10,-3.93909577e-02,3.41424106e-01
8.16645965e-10,-2.20523279e-03,3.01863167e-01
8.17085531e-10,4.85216618e-02,2.62302228e-01
8.17525097e-10,1.12010848e-01,2.22741289e-01
8.17964663e-10,1.86891079e-01,1.83180350e-01
8.18404229e-10,2.70175555e-01,1.43619411e-01
8.18843795e-10,3.58646761e-01,1.04058472e-01
8.19722927e-10,5.45723717e-01,2.49365941e-02
8.20000000e-10,6.06490946e-01,6.66133815e-16
8.20045012e-10,6.18171977e-01,0.00000000e+00
8.20079388e-10,6.26909735e-01,0.00000000e+00
8.20148140e-10,6.44015923e-01,0.00000000e+00
8.20285644e-10,6.76036352e-01,0.00000000e+00
8.20423148e-10,7.05106130e-01,0.00000000e+00
8.20560652e-10,7.31228048e-01,0.00000000e+00
8.20698156e-10,7.54469208e-01,0.00000000e+00
8.20835660e-10,7.74952856e-01,0.00000000e+00
8.20973164e-10,7.92849836e-01,0.00000000e+00
8.21110668e-10,8.08359795e-01,0.00000000e+00
8.21248172e-10,8.21705282e-01,0.00000000e+00
8.21523180e-10,8.42916106e-01,0.00000000e+00
8.21798188e-10,8.58194161e-01,0.00000000e+00
8.22073196e-10,8.69176686e-01,0.00000000e+00
8.22348204e-10,8.77130165e-01,0.00000000e+00
8.22898220e-10,8.87391164e-01,0.00000000e+00
8.23998252e-10,8.96484310e-01,0.00000000e+00
8.26198316e-10,9.00203226e-01,0.00000000e+00
8.28178373e-10,8.99981285e-01,0.00000000e+00
8.30158430e-10,9.00005312e-01,0.00000000e+00
8.32138487e-10,8.99999080e-01,0.00000000e+00
8.36098602e-10,8.99999653e-01,0.00000000e+00
8.44018831e-10,8.99999462e-01,0.00000000e+00
8.59859290e-10,8.99999568e-01,0.00000000e+00
8.89859290e-10,8.99999492e-01,0.00000000e+00
9.19859290e-10,8.99999551e-01,0.00000000e+00
9.49859290e-10,8.99999507e-01,0.00000000e+00
9.79859290e-10,8.99999537e-01,0.00000000e+00
1.00000000e-09,8.99999521e-01,9.30578189e-15
